;$FILEVERSION=1.1
;$STARTTIME=46265.2717011227
;
;   Start time: 31-08-2026 06:31:14.977.0
;   Generated by PCAN-View v6.0.1.1047
;
;   Message Number
;   |         Time Offset (ms)
;   |         |        Type
;   |         |        |        ID (hex)
;   |         |        |        |     Data Length
;   |         |        |        |     |   Data Bytes (hex) ...
;   |         |        |        |     |   |
;---+--   ----+----  --+--  ----+---  +  -+ -- -- -- -- -- -- --
     1)      6142.1  Rx     0CF00200  8  FF 1E FF FF FF FF FF FF 
     2)      6142.7  Rx     18F00100  8  FF 1E FF FF FF FF FF FF 
     3)      6143.3  Rx     18FEF100  8  FF DC 1D FF FF FF FF FF 
     4)      6143.8  Rx     18FEF200  8  DC 1D DC 1D DC 1D FF FF 
     5)      6144.4  Rx     0CF00200  8  FF 1E FF FF FF FF FF FF 
     6)      6145.0  Rx     0CF00400  8  FF FF FF E3 1D FF FF FF 
     7)      6145.6  Rx     18F00100  8  FF 1E FF FF FF FF FF FF 
     8)      6146.2  Rx     18FEF100  8  FF E3 1D FF FF FF FF FF 
     9)      6146.7  Rx     18FEF200  8  E3 1D E3 1D E3 1D FF FF 
    10)      6147.3  Rx     0CF00200  8  FF 1E FF FF FF FF FF FF 
    11)      6147.9  Rx     0CF00400  8  FF FF FF E9 1D FF FF FF 
    12)      6148.4  Rx     18F00100  8  FF 1E FF FF FF FF FF FF 
    13)      6149.0  Rx     18FEF100  8  FF E9 1D FF FF FF FF FF 
    14)      6149.6  Rx     0CF00400  8  FF FF FF EF 1D FF FF FF 
    15)      6150.2  Rx     0CF00200  8  FF 1E FF FF FF FF FF FF 
    16)      6150.7  Rx     18FEF200  8  E9 1D E9 1D E9 1D FF FF 
    17)      6151.3  Rx     18F00100  8  FF 1E FF FF FF FF FF FF 
    18)      6151.9  Rx     18FEF100  8  FF EF 1D FF FF FF FF FF 
    19)      6152.5  Rx     0CF00400  8  FF FF FF F4 1D FF FF FF 
    20)      6153.0  Rx     0CF00200  8  FF 1E FF FF FF FF FF FF 
    21)      6153.6  Rx     18FEF200  8  EF 1D F0 1D F0 1D FF FF 
    22)      6154.2  Rx     18F00100  8  FF 1E FF FF FF FF FF FF 
    23)      6154.8  Rx     18FEF100  8  FF F4 1D FF FF FF FF FF 
    24)      6155.3  Rx     18FEF200  8  F4 1D F4 1D F4 1D FF FF 
    25)      6155.9  Rx     0CF00200  8  FF 1E FF FF FF FF FF FF 
    26)      6156.5  Rx     0CF00400  8  FF FF FF FA 1D FF FF FF 
    27)      6157.1  Rx     18F00100  8  FF 1E FF FF FF FF FF FF 
    28)      6157.6  Rx     18FEF100  8  FF FA 1D FF FF FF FF FF 
    29)      6158.2  Rx     18FEF200  8  FA 1D FA 1D FA 1D FF FF 
    30)      6158.8  Rx     0CF00200  8  FF 1E FF FF FF FF FF FF 
    31)      6159.4  Rx     0CF00400  8  FF FF FF 01 1E FF FF FF 
    32)      6159.9  Rx     18F00100  8  FF 1E FF FF FF FF FF FF 
    33)      6160.5  Rx     18FEF100  8  FF 01 1E FF FF FF FF FF 
    34)      6161.1  Rx     0CF00400  8  FF FF FF 07 1E FF FF FF 
    35)      6161.7  Rx     0CF00200  8  FF 1E FF FF FF FF FF FF 
    36)      6162.2  Rx     18FEF200  8  01 1E 01 1E 01 1E FF FF 
    37)      6162.8  Rx     18F00100  8  FF 1E FF FF FF FF FF FF 
    38)      6163.4  Rx     18FEF100  8  FF 07 1E FF FF FF FF FF 
    39)      6164.0  Rx     18FEF200  8  07 1E 07 1E 07 1E FF FF 
    40)      6164.6  Rx     0CF00200  8  FF 1E FF FF FF FF FF FF 
    41)      6165.1  Rx     0CF00400  8  FF FF FF 0D 1E FF FF FF 
    42)      6165.7  Rx     18F00100  8  FF 1E FF FF FF FF FF FF 
    43)      6166.3  Rx     18FEF100  8  FF 0D 1E FF FF FF FF FF 
    44)      6166.9  Rx     18FEF200  8  0D 1E 0E 1E 0E 1E FF FF 
    45)      6167.5  Rx     0CF00400  8  FF FF FF 14 1E FF FF FF 
    46)      6168.0  Rx     0CF00200  8  FF 1E FF FF FF FF FF FF 
    47)      6168.6  Rx     18F00100  8  FF 1E FF FF FF FF FF FF 
    48)      6169.2  Rx     18FEF100  8  FF 14 1E FF FF FF FF FF 
    49)      6169.8  Rx     18FEF200  8  14 1E 14 1E 14 1E FF FF 
    50)      6170.4  Rx     0CF00200  8  FF 1E FF FF FF FF FF FF 
    51)      6171.0  Rx     0CF00400  8  FF FF FF 1A 1E FF FF FF 
    52)      6171.5  Rx     18F00100  8  FF 1E FF FF FF FF FF FF 
    53)      6172.1  Rx     18FEF100  8  FF 1A 1E FF FF FF FF FF 
    54)      6172.7  Rx     0CF00400  8  FF FF FF 21 1E FF FF FF 
    55)      6173.3  Rx     0CF00200  8  FF 1E FF FF FF FF FF FF 
    56)      6173.8  Rx     18FEF200  8  1A 1E 1A 1E 1A 1E FF FF 
    57)      6174.4  Rx     18F00100  8  FF 1E FF FF FF FF FF FF 
    58)      6175.0  Rx     18FEF100  8  FF 21 1E FF FF FF FF FF 
    59)      6175.5  Rx     0CF00400  8  FF FF FF 27 1E FF FF FF 
    60)      6176.1  Rx     0CF00200  8  FF 1E FF FF FF FF FF FF 
    61)      6176.7  Rx     18F00100  8  FF 1E FF FF FF FF FF FF 
    62)      6177.3  Rx     18FEF200  8  21 1E 21 1E 21 1E FF FF 
    63)      6177.8  Rx     18FEF100  8  FF 27 1E FF FF FF FF FF 
    64)      6178.4  Rx     18FEF200  8  27 1E 27 1E 27 1E FF FF 
    65)      6179.0  Rx     0CF00200  8  FF 1E FF FF FF FF FF FF 
    66)      6179.5  Rx     0CF00400  8  FF FF FF 2B 1E FF FF FF 
    67)      6180.1  Rx     18F00100  8  FF 1E FF FF FF FF FF FF 
    68)      6180.7  Rx     18FEF100  8  FF 2B 1E FF FF FF FF FF 
    69)      6181.3  Rx     0CF00400  8  FF FF FF 32 1E FF FF FF 
    70)      6181.8  Rx     0CF00200  8  FF 1E FF FF FF FF FF FF 
    71)      6182.4  Rx     18F00100  8  FF 1E FF FF FF FF FF FF 
    72)      6183.0  Rx     18FEF100  8  FF 32 1E FF FF FF FF FF 
    73)      6183.6  Rx     18FEF200  8  2B 1E 2C 1E 2C 1E FF FF 
    74)      6184.1  Rx     0CF00400  8  FF FF FF 38 1E FF FF FF 
    75)      6184.7  Rx     18FEF200  8  32 1E 32 1E 32 1E FF FF 
    76)      6185.3  Rx     0CF00200  8  FF 1E FF FF FF FF FF FF 
    77)      6185.9  Rx     18F00100  8  FF 1E FF FF FF FF FF FF 
    78)      6186.4  Rx     18FEF100  8  FF 38 1E FF FF FF FF FF 
    79)      6187.0  Rx     0CF00400  8  FF FF FF 3F 1E FF FF FF 
    80)      6187.6  Rx     18FEF200  8  38 1E 38 1E 38 1E FF FF 
    81)      6188.2  Rx     0CF00200  8  FF 1E FF FF FF FF FF FF 
    82)      6188.7  Rx     18F00100  8  FF 1E FF FF FF FF FF FF 
    83)      6189.3  Rx     18FEF100  8  FF 3F 1E FF FF FF FF FF 
    84)      6189.9  Rx     0CF00400  8  FF FF FF 45 1E FF FF FF 
    85)      6190.5  Rx     18FEF200  8  3F 1E 3F 1E 3F 1E FF FF 
    86)      6191.0  Rx     0CF00200  8  FF 1E FF FF FF FF FF FF 
    87)      6191.6  Rx     18F00100  8  FF 1E FF FF FF FF FF FF 
    88)      6192.2  Rx     18FEF100  8  FF 45 1E FF FF FF FF FF 
    89)      6192.8  Rx     0CF00400  8  FF FF FF 4C 1E FF FF FF 
    90)      6193.4  Rx     0CF00200  8  FF 1E FF FF FF FF FF FF 
    91)      6193.9  Rx     18FEF200  8  45 1E 45 1E 45 1E FF FF 
    92)      6194.5  Rx     18F00100  8  FF 1E FF FF FF FF FF FF 
    93)      6195.1  Rx     18FEF100  8  FF 4C 1E FF FF FF FF FF 
    94)      6195.7  Rx     18FEF200  8  4C 1E 4C 1E 4C 1E FF FF 
    95)      6196.3  Rx     0CF00200  8  FF 1E FF FF FF FF FF FF 
    96)      6196.8  Rx     0CF00400  8  FF FF FF 52 1E FF FF FF 
    97)      6197.4  Rx     18F00100  8  FF 1E FF FF FF FF FF FF 
    98)      6198.0  Rx     18FEF100  8  FF 52 1E FF FF FF FF FF 
    99)      6198.6  Rx     18FEF200  8  52 1E 52 1E 52 1E FF FF 
   100)      6199.1  Rx     0CF00200  8  FF 1E FF FF FF FF FF FF 
   101)      6199.7  Rx     0CF00400  8  FF FF FF 56 1E FF FF FF 
   102)      6200.3  Rx     18F00100  8  FF 1E FF FF FF FF FF FF 
   103)      6200.9  Rx     18FEF100  8  FF 56 1E FF FF FF FF FF 
   104)      6201.4  Rx     0CF00400  8  FF FF FF 5D 1E FF FF FF 
   105)      6202.0  Rx     0CF00200  8  FF 1E FF FF FF FF FF FF 
   106)      6202.6  Rx     18F00100  8  FF 1E FF FF FF FF FF FF 
   107)      6203.2  Rx     18FEF100  8  FF 5D 1E FF FF FF FF FF 
   108)      6203.7  Rx     18FEF200  8  56 1E 56 1E 56 1E FF FF 
   109)      6204.3  Rx     0CF00400  8  FF FF FF 63 1E FF FF FF 
   110)      6204.9  Rx     0CF00200  8  FF 1E FF FF FF FF FF FF 
   111)      6205.5  Rx     18F00100  8  FF 1E FF FF FF FF FF FF 
   112)      6206.0  Rx     18FEF100  8  FF 63 1E FF FF FF FF FF 
   113)      6206.6  Rx     18FEF200  8  5D 1E 5D 1E 5D 1E FF FF 
   114)      6207.1  Rx     0CF00400  8  FF FF FF 6A 1E FF FF FF 
   115)      6207.7  Rx     0CF00200  8  FF 1E FF FF FF FF FF FF 
   116)      6208.3  Rx     18F00100  8  FF 1E FF FF FF FF FF FF 
   117)      6208.9  Rx     18FEF200  8  63 1E 63 1E 63 1E FF FF 
   118)      6209.4  Rx     18FEF100  8  FF 6A 1E FF FF FF FF FF 
   119)      6210.0  Rx     18FEF200  8  6A 1E 6A 1E 6A 1E FF FF 
   120)      6210.6  Rx     0CF00200  8  FF 1E FF FF FF FF FF FF 
   121)      6211.1  Rx     0CF00400  8  FF FF FF 70 1E FF FF FF 
   122)      6211.7  Rx     18F00100  8  FF 1E FF FF FF FF FF FF 
   123)      6212.3  Rx     18FEF100  8  FF 70 1E FF FF FF FF FF 
   124)      6212.9  Rx     0CF00400  8  FF FF FF 76 1E FF FF FF 
   125)      6213.4  Rx     0CF00200  8  FF 1E FF FF FF FF FF FF 
   126)      6214.0  Rx     18FEF200  8  70 1E 70 1E 70 1E FF FF 
   127)      6214.6  Rx     18F00100  8  FF 1E FF FF FF FF FF FF 
   128)      6215.2  Rx     18FEF100  8  FF 76 1E FF FF FF FF FF 
   129)      6215.8  Rx     0CF00400  8  FF FF FF 7D 1E FF FF FF 
   130)      6216.3  Rx     0CF00200  8  FF 1E FF FF FF FF FF FF 
   131)      6216.9  Rx     18FEF200  8  76 1E 77 1E 77 1E FF FF 
   132)      6217.5  Rx     18F00100  8  FF 1E FF FF FF FF FF FF 
   133)      6218.1  Rx     18FEF100  8  FF 7D 1E FF FF FF FF FF 
   134)      6218.6  Rx     18FEF200  8  7D 1E 7D 1E 7D 1E FF FF 
   135)      6219.2  Rx     0CF00200  8  FF 1E FF FF FF FF FF FF 
   136)      6219.8  Rx     0CF00400  8  FF FF FF 81 1E FF FF FF 
   137)      6220.4  Rx     18F00100  8  FF 1E FF FF FF FF FF FF 
   138)      6220.9  Rx     18FEF100  8  FF 81 1E FF FF FF FF FF 
   139)      6221.5  Rx     18FEF200  8  81 1E 81 1E 81 1E FF FF 
   140)      6222.1  Rx     0CF00400  8  FF FF FF 88 1E FF FF FF 
   141)      6222.6  Rx     0CF00200  8  FF 1E FF FF FF FF FF FF 
   142)      6223.2  Rx     18F00100  8  FF 1E FF FF FF FF FF FF 
   143)      6223.8  Rx     18FEF100  8  FF 88 1E FF FF FF FF FF 
   144)      6224.4  Rx     0CF00400  8  FF FF FF 8E 1E FF FF FF 
   145)      6224.9  Rx     18FEF200  8  88 1E 88 1E 88 1E FF FF 
   146)      6225.5  Rx     0CF00200  8  FF 1E FF FF FF FF FF FF 
   147)      6226.1  Rx     18F00100  8  FF 1E FF FF FF FF FF FF 
   148)      6226.7  Rx     18FEF100  8  FF 8E 1E FF FF FF FF FF 
   149)      6227.2  Rx     18FEF200  8  8E 1E 8E 1E 8E 1E FF FF 
   150)      6227.8  Rx     0CF00200  8  FF 1E FF FF FF FF FF FF 
   151)      6228.4  Rx     0CF00400  8  FF FF FF 94 1E FF FF FF 
   152)      6229.0  Rx     18F00100  8  FF 1E FF FF FF FF FF FF 
   153)      6229.6  Rx     18FEF100  8  FF 94 1E FF FF FF FF FF 
   154)      6230.1  Rx     0CF00400  8  FF FF FF 9B 1E FF FF FF 
   155)      6230.7  Rx     0CF00200  8  FF 1E FF FF FF FF FF FF 
   156)      6231.3  Rx     18F00100  8  FF 1E FF FF FF FF FF FF 
   157)      6231.9  Rx     18FEF100  8  FF 9B 1E FF FF FF FF FF 
   158)      6232.4  Rx     18FEF200  8  94 1E 95 1E 95 1E FF FF 
   159)      6233.0  Rx     0CF00400  8  FF FF FF A1 1E FF FF FF 
   160)      6233.6  Rx     0CF00200  8  FF 1F FF FF FF FF FF FF 
   161)      6234.2  Rx     18F00100  8  FF 1F FF FF FF FF FF FF 
   162)      6234.7  Rx     18FEF100  8  FF A1 1E FF FF FF FF FF 
   163)      6235.3  Rx     18FEF200  8  9B 1E 9B 1E 9B 1E FF FF 
   164)      6235.8  Rx     18FEF200  8  A1 1E A1 1E A1 1E FF FF 
   165)      6236.4  Rx     0CF00200  8  FF 1F FF FF FF FF FF FF 
   166)      6237.0  Rx     0CF00400  8  FF FF FF A8 1E FF FF FF 
   167)      6237.6  Rx     18F00100  8  FF 1F FF FF FF FF FF FF 
   168)      6238.2  Rx     18FEF100  8  FF A8 1E FF FF FF FF FF 
   169)      6238.8  Rx     0CF00400  8  FF FF FF AE 1E FF FF FF 
   170)      6239.4  Rx     0CF00200  8  FF 1F FF FF FF FF FF FF 
   171)      6239.9  Rx     18FEF200  8  A8 1E A8 1E A8 1E FF FF 
   172)      6240.5  Rx     18F00100  8  FF 1F FF FF FF FF FF FF 
   173)      6241.1  Rx     18FEF100  8  FF AE 1E FF FF FF FF FF 
   174)      6241.7  Rx     0CF00400  8  FF FF FF B2 1E FF FF FF 
   175)      6242.2  Rx     0CF00200  8  FF 1F FF FF FF FF FF FF 
   176)      6242.8  Rx     18FEF200  8  AE 1E AE 1E AE 1E FF FF 
   177)      6243.4  Rx     18F00100  8  FF 1F FF FF FF FF FF FF 
   178)      6244.0  Rx     18FEF100  8  FF B2 1E FF FF FF FF FF 
   179)      6244.5  Rx     0CF00400  8  FF FF FF B9 1E FF FF FF 
   180)      6245.1  Rx     0CF00200  8  FF 1F FF FF FF FF FF FF 
   181)      6245.7  Rx     18FEF200  8  B2 1E B3 1E B3 1E FF FF 
   182)      6246.3  Rx     18F00100  8  FF 1F FF FF FF FF FF FF 
   183)      6246.9  Rx     18FEF100  8  FF B9 1E FF FF FF FF FF 
   184)      6247.4  Rx     18FEF200  8  B9 1E B9 1E B9 1E FF FF 
   185)      6248.0  Rx     0CF00400  8  FF FF FF BF 1E FF FF FF 
   186)      6248.6  Rx     0CF00200  8  FF 1F FF FF FF FF FF FF 
   187)      6249.2  Rx     18F00100  8  FF 1F FF FF FF FF FF FF 
   188)      6249.8  Rx     18FEF100  8  FF BF 1E FF FF FF FF FF 
   189)      6250.4  Rx     0CF00400  8  FF FF FF C6 1E FF FF FF 
   190)      6250.9  Rx     18FEF200  8  BF 1E BF 1E BF 1E FF FF 
   191)      6251.5  Rx     0CF00200  8  FF 1F FF FF FF FF FF FF 
   192)      6252.1  Rx     18F00100  8  FF 1F FF FF FF FF FF FF 
   193)      6252.7  Rx     18FEF100  8  FF C6 1E FF FF FF FF FF 
   194)      6253.2  Rx     18FEF200  8  C6 1E C6 1E C6 1E FF FF 
   195)      6253.8  Rx     0CF00200  8  FF 1F FF FF FF FF FF FF 
   196)      6254.4  Rx     0CF00400  8  FF FF FF CC 1E FF FF FF 
   197)      6255.0  Rx     18F00100  8  FF 1F FF FF FF FF FF FF 
   198)      6255.6  Rx     18FEF100  8  FF CC 1E FF FF FF FF FF 
   199)      6256.1  Rx     18FEF200  8  CC 1E CC 1E CC 1E FF FF 
   200)      6256.7  Rx     0CF00200  8  FF 1F FF FF FF FF FF FF 
   201)      6257.3  Rx     0CF00400  8  FF FF FF D3 1E FF FF FF 
   202)      6257.9  Rx     18F00100  8  FF 1F FF FF FF FF FF FF 
   203)      6258.5  Rx     18FEF100  8  FF D3 1E FF FF FF FF FF 
   204)      6259.0  Rx     18FEF200  8  D3 1E D3 1E D3 1E FF FF 
   205)      6259.6  Rx     0CF00200  8  FF 1F FF FF FF FF FF FF 
   206)      6260.2  Rx     0CF00400  8  FF FF FF D9 1E FF FF FF 
   207)      6260.8  Rx     18F00100  8  FF 1F FF FF FF FF FF FF 
   208)      6261.3  Rx     18FEF100  8  FF D9 1E FF FF FF FF FF 
   209)      6261.9  Rx     0CF00400  8  FF FF FF DF 1E FF FF FF 
   210)      6262.5  Rx     18FEF200  8  D9 1E D9 1E D9 1E FF FF 
   211)      6263.1  Rx     0CF00200  8  FF 1F FF FF FF FF FF FF 
   212)      6263.6  Rx     18F00100  8  FF 1F FF FF FF FF FF FF 
   213)      6264.2  Rx     18FEF100  8  FF DF 1E FF FF FF FF FF 
   214)      6264.8  Rx     18FEF200  8  DF 1E DF 1E DF 1E FF FF 
   215)      6265.4  Rx     0CF00200  8  FF 1F FF FF FF FF FF FF 
   216)      6266.0  Rx     0CF00400  8  FF FF FF E4 1E FF FF FF 
   217)      6266.6  Rx     18F00100  8  FF 1F FF FF FF FF FF FF 
   218)      6267.1  Rx     18FEF100  8  FF E4 1E FF FF FF FF FF 
   219)      6267.7  Rx     0CF00400  8  FF FF FF EA 1E FF FF FF 
   220)      6268.3  Rx     0CF00200  8  FF 1F FF FF FF FF FF FF 
   221)      6268.9  Rx     18F00100  8  FF 1F FF FF FF FF FF FF 
   222)      6269.5  Rx     18FEF100  8  FF EA 1E FF FF FF FF FF 
   223)      6270.1  Rx     18FEF200  8  E4 1E E4 1E E4 1E FF FF 
   224)      6270.6  Rx     0CF00400  8  FF FF FF F0 1E FF FF FF 
   225)      6271.2  Rx     0CF00200  8  FF 1F FF FF FF FF FF FF 
   226)      6271.8  Rx     18F00100  8  FF 1F FF FF FF FF FF FF 
   227)      6272.4  Rx     18FEF100  8  FF F0 1E FF FF FF FF FF 
   228)      6273.0  Rx     18FEF200  8  EA 1E EA 1E EA 1E FF FF 
   229)      6273.5  Rx     0CF00400  8  FF FF FF F7 1E FF FF FF 
   230)      6274.1  Rx     0CF00200  8  FF 1F FF FF FF FF FF FF 
   231)      6274.7  Rx     18FEF200  8  F1 1E F1 1E F1 1E FF FF 
   232)      6275.3  Rx     18F00100  8  FF 1F FF FF FF FF FF FF 
   233)      6275.8  Rx     18FEF100  8  FF F7 1E FF FF FF FF FF 
   234)      6276.4  Rx     0CF00400  8  FF FF FF FD 1E FF FF FF 
   235)      6277.0  Rx     0CF00200  8  FF 1F FF FF FF FF FF FF 
   236)      6277.6  Rx     18F00100  8  FF 1F FF FF FF FF FF FF 
   237)      6278.2  Rx     18FEF100  8  FF FD 1E FF FF FF FF FF 
   238)      6278.7  Rx     18FEF200  8  F7 1E F7 1E F7 1E FF FF 
   239)      6279.3  Rx     18FEF200  8  FD 1E FD 1E FD 1E FF FF 
   240)      6279.9  Rx     0CF00200  8  FF 1F FF FF FF FF FF FF 
   241)      6280.4  Rx     0CF00400  8  FF FF FF 04 1F FF FF FF 
   242)      6281.0  Rx     18F00100  8  FF 1F FF FF FF FF FF FF 
   243)      6281.6  Rx     18FEF100  8  FF 04 1F FF FF FF FF FF 
   244)      6282.2  Rx     18FEF200  8  04 1F 04 1F 04 1F FF FF 
   245)      6282.8  Rx     0CF00400  8  FF FF FF 0A 1F FF FF FF 
   246)      6283.4  Rx     0CF00200  8  FF 1F FF FF FF FF FF FF 
   247)      6284.0  Rx     18F00100  8  FF 1F FF FF FF FF FF FF 
   248)      6284.5  Rx     18FEF100  8  FF 0A 1F FF FF FF FF FF 
   249)      6285.1  Rx     18FEF200  8  0A 1F 0A 1F 0A 1F FF FF 
   250)      6285.7  Rx     0CF00200  8  FF 1F FF FF FF FF FF FF 
   251)      6286.3  Rx     0CF00400  8  FF FF FF 11 1F FF FF FF 
   252)      6286.9  Rx     18F00100  8  FF 1F FF FF FF FF FF FF 
   253)      6287.5  Rx     18FEF100  8  FF 11 1F FF FF FF FF FF 
   254)      6288.0  Rx     0CF00400  8  FF FF FF 17 1F FF FF FF 
   255)      6288.6  Rx     0CF00200  8  FF 1F FF FF FF FF FF FF 
   256)      6289.2  Rx     18FEF200  8  11 1F 11 1F 11 1F FF FF 
   257)      6289.8  Rx     18F00100  8  FF 1F FF FF FF FF FF FF 
   258)      6290.3  Rx     18FEF100  8  FF 17 1F FF FF FF FF FF 
   259)      6290.9  Rx     0CF00400  8  FF FF FF 1B 1F FF FF FF 
   260)      6291.5  Rx     18FEF200  8  17 1F 17 1F 17 1F FF FF 
   261)      6292.1  Rx     0CF00200  8  FF 1F FF FF FF FF FF FF 
   262)      6292.7  Rx     18F00100  8  FF 1F FF FF FF FF FF FF 
   263)      6293.2  Rx     18FEF100  8  FF 1B 1F FF FF FF FF FF 
   264)      6293.8  Rx     18FEF200  8  1B 1F 1B 1F 1B 1F FF FF 
   265)      6294.4  Rx     0CF00200  8  FF 1F FF FF FF FF FF FF 
   266)      6295.0  Rx     0CF00400  8  FF FF FF 22 1F FF FF FF 
   267)      6295.6  Rx     18F00100  8  FF 1F FF FF FF FF FF FF 
   268)      6296.1  Rx     18FEF100  8  FF 22 1F FF FF FF FF FF 
   269)      6296.7  Rx     0CF00400  8  FF FF FF 28 1F FF FF FF 
   270)      6297.3  Rx     0CF00200  8  FF 1F FF FF FF FF FF FF 
   271)      6297.9  Rx     18F00100  8  FF 1F FF FF FF FF FF FF 
   272)      6298.5  Rx     18FEF100  8  FF 28 1F FF FF FF FF FF 
   273)      6299.0  Rx     18FEF200  8  22 1F 22 1F 22 1F FF FF 
   274)      6299.6  Rx     0CF00400  8  FF FF FF 2F 1F FF FF FF 
   275)      6300.2  Rx     18FEF200  8  28 1F 28 1F 28 1F FF FF 
   276)      6300.8  Rx     0CF00200  8  FF 1F FF FF FF FF FF FF 
   277)      6301.4  Rx     18F00100  8  FF 1F FF FF FF FF FF FF 
   278)      6302.0  Rx     18FEF100  8  FF 2F 1F FF FF FF FF FF 
   279)      6302.5  Rx     18FEF200  8  2F 1F 2F 1F 2F 1F FF FF 
   280)      6303.1  Rx     0CF00200  8  FF 1F FF FF FF FF FF FF 
   281)      6303.7  Rx     0CF00400  8  FF FF FF 35 1F FF FF FF 
   282)      6304.3  Rx     18F00100  8  FF 1F FF FF FF FF FF FF 
   283)      6304.9  Rx     18FEF100  8  FF 35 1F FF FF FF FF FF 
   284)      6305.4  Rx     0CF00400  8  FF FF FF 3B 1F FF FF FF 
   285)      6306.0  Rx     0CF00200  8  FF 1F FF FF FF FF FF FF 
   286)      6306.6  Rx     18F00100  8  FF 1F FF FF FF FF FF FF 
   287)      6307.2  Rx     18FEF100  8  FF 3B 1F FF FF FF FF FF 
   288)      6307.8  Rx     18FEF200  8  35 1F 35 1F 35 1F FF FF 
   289)      6308.3  Rx     18FEF200  8  3B 1F 3C 1F 3C 1F FF FF 
   290)      6308.9  Rx     0CF00200  8  FF 1F FF FF FF FF FF FF 
   291)      6309.5  Rx     0CF00400  8  FF FF FF 42 1F FF FF FF 
   292)      6310.1  Rx     18F00100  8  FF 1F FF FF FF FF FF FF 
   293)      6310.7  Rx     18FEF100  8  FF 42 1F FF FF FF FF FF 
   294)      6311.2  Rx     0CF00400  8  FF FF FF 48 1F FF FF FF 
   295)      6311.8  Rx     0CF00200  8  FF 1F FF FF FF FF FF FF 
   296)      6312.4  Rx     18F00100  8  FF 1F FF FF FF FF FF FF 
   297)      6313.0  Rx     18FEF200  8  42 1F 42 1F 42 1F FF FF 
   298)      6313.6  Rx     18FEF100  8  FF 48 1F FF FF FF FF FF 
   299)      6314.2  Rx     18FEF200  8  48 1F 48 1F 48 1F FF FF 
   300)      6314.7  Rx     0CF00200  8  FF 1F FF FF FF FF FF FF 
   301)      6315.3  Rx     0CF00400  8  FF FF FF 4F 1F FF FF FF 
   302)      6315.9  Rx     18F00100  8  FF 1F FF FF FF FF FF FF 
   303)      6316.5  Rx     18FEF100  8  FF 4F 1F FF FF FF FF FF 
   304)      6317.1  Rx     0CF00400  8  FF FF FF 55 1F FF FF FF 
   305)      6317.6  Rx     0CF00200  8  FF 1F FF FF FF FF FF FF 
   306)      6318.2  Rx     18FEF200  8  4F 1F 4F 1F 4F 1F FF FF 
   307)      6318.8  Rx     18F00100  8  FF 1F FF FF FF FF FF FF 
   308)      6319.4  Rx     18FEF100  8  FF 55 1F FF FF FF FF FF 
   309)      6319.9  Rx     18FEF200  8  55 1F 55 1F 55 1F FF FF 
   310)      6320.5  Rx     0CF00400  8  FF FF FF 59 1F FF FF FF 
   311)      6321.1  Rx     0CF00200  8  FF 1F FF FF FF FF FF FF 
   312)      6321.7  Rx     18F00100  8  FF 1F FF FF FF FF FF FF 
   313)      6322.3  Rx     18FEF100  8  FF 59 1F FF FF FF FF FF 
   314)      6322.9  Rx     0CF00400  8  FF FF FF 60 1F FF FF FF 
   315)      6323.4  Rx     0CF00200  8  FF 1F FF FF FF FF FF FF 
   316)      6324.0  Rx     18F00100  8  FF 1F FF FF FF FF FF FF 
   317)      6324.6  Rx     18FEF200  8  59 1F 5A 1F 5A 1F FF FF 
   318)      6325.2  Rx     18FEF100  8  FF 60 1F FF FF FF FF FF 
   319)      6325.7  Rx     18FEF200  8  60 1F 60 1F 60 1F FF FF 
   320)      6326.3  Rx     0CF00200  8  FF 1F FF FF FF FF FF FF 
   321)      6326.9  Rx     0CF00400  8  FF FF FF 66 1F FF FF FF 
   322)      6327.5  Rx     18F00100  8  FF 1F FF FF FF FF FF FF 
   323)      6328.1  Rx     18FEF100  8  FF 66 1F FF FF FF FF FF 
   324)      6328.6  Rx     18FEF200  8  66 1F 66 1F 66 1F FF FF 
   325)      6329.2  Rx     0CF00400  8  FF FF FF 6D 1F FF FF FF 
   326)      6329.8  Rx     0CF00200  8  FF 1F FF FF FF FF FF FF 
   327)      6330.4  Rx     18F00100  8  FF 1F FF FF FF FF FF FF 
   328)      6331.0  Rx     18FEF100  8  FF 6D 1F FF FF FF FF FF 
   329)      6331.6  Rx     0CF00400  8  FF FF FF 73 1F FF FF FF 
   330)      6332.1  Rx     0CF00200  8  FF 1F FF FF FF FF FF FF 
   331)      6332.7  Rx     18FEF200  8  6D 1F 6D 1F 6D 1F FF FF 
   332)      6333.3  Rx     18F00100  8  FF 1F FF FF FF FF FF FF 
   333)      6333.9  Rx     18FEF100  8  FF 73 1F FF FF FF FF FF 
   334)      6334.4  Rx     18FEF200  8  73 1F 73 1F 73 1F FF FF 
   335)      6335.0  Rx     0CF00400  8  FF FF FF 7A 1F FF FF FF 
   336)      6335.6  Rx     0CF00200  8  FF 1F FF FF FF FF FF FF 
   337)      6336.2  Rx     18F00100  8  FF 1F FF FF FF FF FF FF 
   338)      6336.8  Rx     18FEF100  8  FF 7A 1F FF FF FF FF FF 
   339)      6337.3  Rx     18FEF200  8  7A 1F 7A 1F 7A 1F FF FF 
   340)      6337.9  Rx     0CF00200  8  FF 1F FF FF FF FF FF FF 
   341)      6338.5  Rx     0CF00400  8  FF FF FF 80 1F FF FF FF 
   342)      6339.1  Rx     18F00100  8  FF 1F FF FF FF FF FF FF 
   343)      6339.7  Rx     18FEF100  8  FF 80 1F FF FF FF FF FF 
   344)      6340.3  Rx     18FEF200  8  80 1F 80 1F 80 1F FF FF 
   345)      6340.9  Rx     0CF00200  8  FF 1F FF FF FF FF FF FF 
   346)      6341.4  Rx     0CF00400  8  FF FF FF 86 1F FF FF FF 
   347)      6342.0  Rx     18F00100  8  FF 1F FF FF FF FF FF FF 
   348)      6342.6  Rx     18FEF100  8  FF 86 1F FF FF FF FF FF 
   349)      6343.2  Rx     18FEF200  8  86 1F 87 1F 87 1F FF FF 
   350)      6343.8  Rx     0CF00400  8  FF FF FF 8D 1F FF FF FF 
   351)      6344.3  Rx     0CF00200  8  FF 1F FF FF FF FF FF FF 
   352)      6344.9  Rx     18F00100  8  FF 1F FF FF FF FF FF FF 
   353)      6345.5  Rx     18FEF100  8  FF 8D 1F FF FF FF FF FF 
   354)      6346.1  Rx     0CF00400  8  FF FF FF 91 1F FF FF FF 
   355)      6346.7  Rx     0CF00200  8  FF 1F FF FF FF FF FF FF 
   356)      6347.3  Rx     18F00100  8  FF 1F FF FF FF FF FF FF 
   357)      6347.8  Rx     18FEF100  8  FF 91 1F FF FF FF FF FF 
   358)      6348.4  Rx     18FEF200  8  8D 1F 8D 1F 8D 1F FF FF 
   359)      6349.0  Rx     0CF00400  8  FF FF FF 98 1F FF FF FF 
   360)      6349.6  Rx     18FEF200  8  91 1F 91 1F 91 1F FF FF 
   361)      6350.1  Rx     0CF00200  8  FF 1F FF FF FF FF FF FF 
   362)      6350.7  Rx     18F00100  8  FF 1F FF FF FF FF FF FF 
   363)      6351.3  Rx     18FEF100  8  FF 98 1F FF FF FF FF FF 
   364)      6351.9  Rx     0CF00400  8  FF FF FF 9E 1F FF FF FF 
   365)      6352.5  Rx     0CF00200  8  FF 1F FF FF FF FF FF FF 
   366)      6353.1  Rx     18F00100  8  FF 1F FF FF FF FF FF FF 
   367)      6353.7  Rx     18FEF100  8  FF 9E 1F FF FF FF FF FF 
   368)      6354.2  Rx     18FEF200  8  98 1F 98 1F 98 1F FF FF 
   369)      6354.8  Rx     0CF00400  8  FF FF FF A4 1F FF FF FF 
   370)      6355.4  Rx     18FEF200  8  9E 1F 9E 1F 9E 1F FF FF 
   371)      6356.0  Rx     0CF00200  8  FF 20 FF FF FF FF FF FF 
   372)      6356.6  Rx     18F00100  8  FF 20 FF FF FF FF FF FF 
   373)      6357.1  Rx     18FEF100  8  FF A4 1F FF FF FF FF FF 
   374)      6357.7  Rx     0CF00400  8  FF FF FF AB 1F FF FF FF 
   375)      6358.3  Rx     0CF00200  8  FF 20 FF FF FF FF FF FF 
   376)      6358.9  Rx     18FEF200  8  A4 1F A5 1F A5 1F FF FF 
   377)      6359.5  Rx     18F00100  8  FF 20 FF FF FF FF FF FF 
   378)      6360.0  Rx     18FEF100  8  FF AB 1F FF FF FF FF FF 
   379)      6360.6  Rx     18FEF200  8  AB 1F AB 1F AB 1F FF FF 
   380)      6361.2  Rx     0CF00200  8  FF 20 FF FF FF FF FF FF 
   381)      6361.8  Rx     0CF00400  8  FF FF FF B1 1F FF FF FF 
   382)      6362.4  Rx     18F00100  8  FF 20 FF FF FF FF FF FF 
   383)      6362.9  Rx     18FEF100  8  FF B1 1F FF FF FF FF FF 
   384)      6363.5  Rx     0CF00400  8  FF FF FF B8 1F FF FF FF 
   385)      6364.1  Rx     0CF00200  8  FF 20 FF FF FF FF FF FF 
   386)      6364.7  Rx     18FEF200  8  B1 1F B1 1F B1 1F FF FF 
   387)      6365.3  Rx     18F00100  8  FF 20 FF FF FF FF FF FF 
   388)      6365.8  Rx     18FEF100  8  FF B8 1F FF FF FF FF FF 
   389)      6366.4  Rx     18FEF200  8  B8 1F B8 1F B8 1F FF FF 
   390)      6367.0  Rx     0CF00200  8  FF 20 FF FF FF FF FF FF 
   391)      6367.6  Rx     0CF00400  8  FF FF FF BE 1F FF FF FF 
   392)      6368.2  Rx     18F00100  8  FF 20 FF FF FF FF FF FF 
   393)      6368.8  Rx     18FEF100  8  FF BE 1F FF FF FF FF FF 
   394)      6369.3  Rx     18FEF200  8  BE 1F BE 1F BE 1F FF FF 
   395)      6369.9  Rx     0CF00400  8  FF FF FF C5 1F FF FF FF 
   396)      6370.5  Rx     0CF00200  8  FF 20 FF FF FF FF FF FF 
   397)      6371.1  Rx     18F00100  8  FF 20 FF FF FF FF FF FF 
   398)      6371.7  Rx     18FEF100  8  FF C5 1F FF FF FF FF FF 
   399)      6372.2  Rx     18FEF200  8  C5 1F C5 1F C5 1F FF FF 
   400)      6372.8  Rx     0CF00400  8  FF FF FF CB 1F FF FF FF 
   401)      6373.4  Rx     0CF00200  8  FF 20 FF FF FF FF FF FF 
   402)      6374.0  Rx     18F00100  8  FF 20 FF FF FF FF FF FF 
   403)      6374.6  Rx     18FEF100  8  FF CB 1F FF FF FF FF FF 
   404)      6375.2  Rx     18FEF200  8  CB 1F CB 1F CB 1F FF FF 
   405)      6375.7  Rx     0CF00200  8  FF 20 FF FF FF FF FF FF 
   406)      6376.3  Rx     0CF00400  8  FF FF FF CF 1F FF FF FF 
   407)      6376.9  Rx     18F00100  8  FF 20 FF FF FF FF FF FF 
   408)      6377.5  Rx     18FEF100  8  FF CF 1F FF FF FF FF FF 
   409)      6378.1  Rx     18FEF200  8  CF 1F CF 1F CF 1F FF FF 
   410)      6378.6  Rx     0CF00200  8  FF 20 FF FF FF FF FF FF 
   411)      6379.2  Rx     0CF00400  8  FF FF FF D6 1F FF FF FF 
   412)      6379.8  Rx     18F00100  8  FF 20 FF FF FF FF FF FF 
   413)      6380.4  Rx     18FEF100  8  FF D6 1F FF FF FF FF FF 
   414)      6381.0  Rx     18FEF200  8  D6 1F D6 1F D6 1F FF FF 
   415)      6381.6  Rx     0CF00400  8  FF FF FF DC 1F FF FF FF 
   416)      6382.1  Rx     0CF00200  8  FF 20 FF FF FF FF FF FF 
   417)      6382.7  Rx     18F00100  8  FF 20 FF FF FF FF FF FF 
   418)      6383.3  Rx     18FEF100  8  FF DC 1F FF FF FF FF FF 
   419)      6383.9  Rx     0CF00400  8  FF FF FF E3 1F FF FF FF 
   420)      6384.5  Rx     0CF00200  8  FF 20 FF FF FF FF FF FF 
   421)      6385.0  Rx     18FEF200  8  DC 1F DC 1F DC 1F FF FF 
   422)      6385.6  Rx     18F00100  8  FF 20 FF FF FF FF FF FF 
   423)      6386.2  Rx     18FEF100  8  FF E3 1F FF FF FF FF FF 
   424)      6386.8  Rx     0CF00400  8  FF FF FF E9 1F FF FF FF 
   425)      6387.4  Rx     0CF00200  8  FF 20 FF FF FF FF FF FF 
   426)      6388.0  Rx     18FEF200  8  E3 1F E3 1F E3 1F FF FF 
   427)      6388.5  Rx     18F00100  8  FF 20 FF FF FF FF FF FF 
   428)      6389.1  Rx     18FEF100  8  FF E9 1F FF FF FF FF FF 
   429)      6389.7  Rx     0CF00400  8  FF FF FF EF 1F FF FF FF 
   430)      6390.3  Rx     0CF00200  8  FF 20 FF FF FF FF FF FF 
   431)      6390.8  Rx     18FEF200  8  E9 1F E9 1F E9 1F FF FF 
   432)      6391.4  Rx     18F00100  8  FF 20 FF FF FF FF FF FF 
   433)      6392.0  Rx     18FEF100  8  FF EF 1F FF FF FF FF FF 
   434)      6392.6  Rx     0CF00400  8  FF FF FF F6 1F FF FF FF 
   435)      6393.2  Rx     0CF00200  8  FF 20 FF FF FF FF FF FF 
   436)      6393.7  Rx     18FEF200  8  EF 1F F0 1F F0 1F FF FF 
   437)      6394.3  Rx     18F00100  8  FF 20 FF FF FF FF FF FF 
   438)      6394.9  Rx     18FEF100  8  FF F6 1F FF FF FF FF FF 
   439)      6395.5  Rx     18FEF200  8  F6 1F F6 1F F6 1F FF FF 
   440)      6396.1  Rx     0CF00200  8  FF 20 FF FF FF FF FF FF 
   441)      6396.6  Rx     0CF00400  8  FF FF FF FC 1F FF FF FF 
   442)      6397.2  Rx     18F00100  8  FF 20 FF FF FF FF FF FF 
   443)      6397.8  Rx     18FEF100  8  FF FC 1F FF FF FF FF FF 
   444)      6398.4  Rx     0CF00400  8  FF FF FF 03 20 FF FF FF 
   445)      6399.0  Rx     0CF00200  8  FF 20 FF FF FF FF FF FF 
   446)      6399.6  Rx     18F00100  8  FF 20 FF FF FF FF FF FF 
   447)      6400.2  Rx     18FEF200  8  FC 1F FC 1F FC 1F FF FF 
   448)      6400.8  Rx     18FEF100  8  FF 03 20 FF FF FF FF FF 
   449)      6401.3  Rx     18FEF200  8  03 20 03 20 03 20 FF FF 
   450)      6401.9  Rx     0CF00200  8  FF 20 FF FF FF FF FF FF 
   451)      6402.5  Rx     0CF00400  8  FF FF FF 07 20 FF FF FF 
   452)      6403.1  Rx     18F00100  8  FF 20 FF FF FF FF FF FF 
   453)      6403.7  Rx     18FEF100  8  FF 07 20 FF FF FF FF FF 
   454)      6404.2  Rx     0CF00400  8  FF FF FF 0D 20 FF FF FF 
   455)      6404.8  Rx     0CF00200  8  FF 20 FF FF FF FF FF FF 
   456)      6405.4  Rx     18F00100  8  FF 20 FF FF FF FF FF FF 
   457)      6406.0  Rx     18FEF100  8  FF 0D 20 FF FF FF FF FF 
   458)      6406.6  Rx     18FEF200  8  07 20 07 20 07 20 FF FF 
   459)      6407.2  Rx     0CF00400  8  FF FF FF 14 20 FF FF FF 
   460)      6407.7  Rx     0CF00200  8  FF 20 FF FF FF FF FF FF 
   461)      6408.3  Rx     18F00100  8  FF 20 FF FF FF FF FF FF 
   462)      6408.9  Rx     18FEF200  8  0D 20 0D 20 0D 20 FF FF 
   463)      6409.5  Rx     18FEF100  8  FF 14 20 FF FF FF FF FF 
   464)      6410.0  Rx     18FEF200  8  14 20 14 20 14 20 FF FF 
   465)      6410.6  Rx     0CF00200  8  FF 20 FF FF FF FF FF FF 
   466)      6411.2  Rx     0CF00400  8  FF FF FF 1A 20 FF FF FF 
   467)      6411.8  Rx     18F00100  8  FF 20 FF FF FF FF FF FF 
   468)      6412.4  Rx     18FEF100  8  FF 1A 20 FF FF FF FF FF 
   469)      6412.9  Rx     18FEF200  8  1A 20 1A 20 1A 20 FF FF 
   470)      6413.5  Rx     0CF00200  8  FF 20 FF FF FF FF FF FF 
   471)      6414.1  Rx     0CF00400  8  FF FF FF 21 20 FF FF FF 
   472)      6414.7  Rx     18F00100  8  FF 20 FF FF FF FF FF FF 
   473)      6415.2  Rx     18FEF100  8  FF 21 20 FF FF FF FF FF 
   474)      6415.8  Rx     0CF00400  8  FF FF FF 27 20 FF FF FF 
   475)      6416.4  Rx     0CF00200  8  FF 20 FF FF FF FF FF FF 
   476)      6417.0  Rx     18FEF200  8  21 20 21 20 21 20 FF FF 
   477)      6417.6  Rx     18F00100  8  FF 20 FF FF FF FF FF FF 
   478)      6418.1  Rx     18FEF100  8  FF 27 20 FF FF FF FF FF 
   479)      6418.7  Rx     0CF00400  8  FF FF FF 2D 20 FF FF FF 
   480)      6419.3  Rx     0CF00200  8  FF 20 FF FF FF FF FF FF 
   481)      6419.9  Rx     18FEF200  8  27 20 27 20 27 20 FF FF 
   482)      6420.5  Rx     18F00100  8  FF 20 FF FF FF FF FF FF 
   483)      6421.0  Rx     18FEF100  8  FF 2D 20 FF FF FF FF FF 
   484)      6421.6  Rx     0CF00400  8  FF FF FF 34 20 FF FF FF 
   485)      6422.2  Rx     0CF00200  8  FF 20 FF FF FF FF FF FF 
   486)      6422.8  Rx     18FEF200  8  2D 20 2E 20 2E 20 FF FF 
   487)      6423.4  Rx     18F00100  8  FF 20 FF FF FF FF FF FF 
   488)      6423.9  Rx     18FEF100  8  FF 34 20 FF FF FF FF FF 
   489)      6424.5  Rx     0CF00400  8  FF FF FF 3A 20 FF FF FF 
   490)      6425.1  Rx     0CF00200  8  FF 20 FF FF FF FF FF FF 
   491)      6425.7  Rx     18FEF200  8  34 20 34 20 34 20 FF FF 
   492)      6426.2  Rx     18F00100  8  FF 20 FF FF FF FF FF FF 
   493)      6426.8  Rx     18FEF100  8  FF 3A 20 FF FF FF FF FF 
   494)      6427.4  Rx     18FEF200  8  3A 20 3A 20 3A 20 FF FF 
   495)      6428.0  Rx     0CF00400  8  FF FF FF 3F 20 FF FF FF 
   496)      6428.6  Rx     0CF00200  8  FF 20 FF FF FF FF FF FF 
   497)      6429.2  Rx     18F00100  8  FF 20 FF FF FF FF FF FF 
   498)      6429.8  Rx     18FEF100  8  FF 3F 20 FF FF FF FF FF 
   499)      6430.3  Rx     0CF00400  8  FF FF FF 45 20 FF FF FF 
   500)      6430.9  Rx     0CF00200  8  FF 20 FF FF FF FF FF FF 
   501)      6431.5  Rx     18FEF200  8  3F 20 3F 20 3F 20 FF FF 
   502)      6432.1  Rx     18F00100  8  FF 20 FF FF FF FF FF FF 
   503)      6432.7  Rx     18FEF100  8  FF 45 20 FF FF FF FF FF 
   504)      6433.2  Rx     0CF00400  8  FF FF FF 4B 20 FF FF FF 
   505)      6433.8  Rx     0CF00200  8  FF 20 FF FF FF FF FF FF 
   506)      6434.4  Rx     18F00100  8  FF 20 FF FF FF FF FF FF 
   507)      6435.0  Rx     18FEF200  8  45 20 45 20 45 20 FF FF 
   508)      6435.6  Rx     18FEF100  8  FF 4B 20 FF FF FF FF FF 
   509)      6436.1  Rx     18FEF200  8  4B 20 4C 20 4C 20 FF FF 
   510)      6436.7  Rx     0CF00200  8  FF 20 FF FF FF FF FF FF 
   511)      6437.3  Rx     0CF00400  8  FF FF FF 52 20 FF FF FF 
   512)      6437.9  Rx     18F00100  8  FF 20 FF FF FF FF FF FF 
   513)      6438.5  Rx     18FEF100  8  FF 52 20 FF FF FF FF FF 
   514)      6439.0  Rx     18FEF200  8  52 20 52 20 52 20 FF FF 
   515)      6439.6  Rx     0CF00400  8  FF FF FF 58 20 FF FF FF 
   516)      6440.2  Rx     0CF00200  8  FF 20 FF FF FF FF FF FF 
   517)      6440.8  Rx     18F00100  8  FF 20 FF FF FF FF FF FF 
   518)      6441.4  Rx     18FEF100  8  FF 58 20 FF FF FF FF FF 
   519)      6441.9  Rx     18FEF200  8  58 20 58 20 58 20 FF FF 
   520)      6442.5  Rx     0CF00200  8  FF 20 FF FF FF FF FF FF 
   521)      6443.1  Rx     0CF00400  8  FF FF FF 5F 20 FF FF FF 
   522)      6443.7  Rx     18F00100  8  FF 20 FF FF FF FF FF FF 
   523)      6444.3  Rx     18FEF100  8  FF 5F 20 FF FF FF FF FF 
   524)      6444.8  Rx     0CF00400  8  FF FF FF 65 20 FF FF FF 
   525)      6445.4  Rx     0CF00200  8  FF 20 FF FF FF FF FF FF 
   526)      6446.0  Rx     18FEF200  8  5F 20 5F 20 5F 20 FF FF 
   527)      6446.6  Rx     18F00100  8  FF 20 FF FF FF FF FF FF 
   528)      6447.2  Rx     18FEF100  8  FF 65 20 FF FF FF FF FF 
   529)      6447.7  Rx     0CF00400  8  FF FF FF 6C 20 FF FF FF 
   530)      6448.3  Rx     0CF00200  8  FF 20 FF FF FF FF FF FF 
   531)      6448.9  Rx     18F00100  8  FF 20 FF FF FF FF FF FF 
   532)      6449.5  Rx     18FEF200  8  65 20 65 20 65 20 FF FF 
   533)      6450.1  Rx     18FEF100  8  FF 6C 20 FF FF FF FF FF 
   534)      6450.6  Rx     18FEF200  8  6C 20 6C 20 6C 20 FF FF 
   535)      6451.2  Rx     0CF00200  8  FF 20 FF FF FF FF FF FF 
   536)      6451.8  Rx     0CF00400  8  FF FF FF 72 20 FF FF FF 
   537)      6452.4  Rx     18F00100  8  FF 20 FF FF FF FF FF FF 
   538)      6452.9  Rx     18FEF100  8  FF 72 20 FF FF FF FF FF 
   539)      6453.5  Rx     0CF00400  8  FF FF FF 76 20 FF FF FF 
   540)      6454.1  Rx     0CF00200  8  FF 20 FF FF FF FF FF FF 
   541)      6454.7  Rx     18F00100  8  FF 20 FF FF FF FF FF FF 
   542)      6455.2  Rx     18FEF200  8  72 20 72 20 72 20 FF FF 
   543)      6455.8  Rx     18FEF100  8  FF 76 20 FF FF FF FF FF 
   544)      6456.4  Rx     18FEF200  8  76 20 76 20 76 20 FF FF 
   545)      6457.0  Rx     0CF00200  8  FF 20 FF FF FF FF FF FF 
   546)      6457.5  Rx     0CF00400  8  FF FF FF 7D 20 FF FF FF 
   547)      6458.1  Rx     18F00100  8  FF 20 FF FF FF FF FF FF 
   548)      6458.7  Rx     18FEF100  8  FF 7D 20 FF FF FF FF FF 
   549)      6459.3  Rx     18FEF200  8  7D 20 7D 20 7D 20 FF FF 
   550)      6459.9  Rx     0CF00200  8  FF 20 FF FF FF FF FF FF 
   551)      6460.5  Rx     0CF00400  8  FF FF FF 83 20 FF FF FF 
   552)      6461.0  Rx     18F00100  8  FF 20 FF FF FF FF FF FF 
   553)      6461.6  Rx     18FEF100  8  FF 83 20 FF FF FF FF FF 
   554)      6462.2  Rx     0CF00400  8  FF FF FF 8A 20 FF FF FF 
   555)      6462.8  Rx     0CF00200  8  FF 20 FF FF FF FF FF FF 
   556)      6463.4  Rx     18F00100  8  FF 20 FF FF FF FF FF FF 
   557)      6464.0  Rx     18FEF100  8  FF 8A 20 FF FF FF FF FF 
   558)      6464.5  Rx     18FEF200  8  8A 20 8A 20 8A 20 FF FF 
   559)      6465.1  Rx     18FEF200  8  83 20 83 20 83 20 FF FF 
   560)      6465.7  Rx     0CF00200  8  FF 20 FF FF FF FF FF FF 
   561)      6466.3  Rx     0CF00400  8  FF FF FF 90 20 FF FF FF 
   562)      6466.9  Rx     18F00100  8  FF 20 FF FF FF FF FF FF 
   563)      6467.4  Rx     18FEF100  8  FF 90 20 FF FF FF FF FF 
   564)      6468.0  Rx     0CF00400  8  FF FF FF 96 20 FF FF FF 
   565)      6468.6  Rx     0CF00200  8  FF 20 FF FF FF FF FF FF 
   566)      6469.2  Rx     18FEF200  8  90 20 90 20 90 20 FF FF 
   567)      6469.8  Rx     18F00100  8  FF 20 FF FF FF FF FF FF 
   568)      6470.3  Rx     18FEF100  8  FF 96 20 FF FF FF FF FF 
   569)      6470.9  Rx     0CF00400  8  FF FF FF 9D 20 FF FF FF 
   570)      6471.5  Rx     0CF00200  8  FF 20 FF FF FF FF FF FF 
   571)      6472.1  Rx     18F00100  8  FF 20 FF FF FF FF FF FF 
   572)      6472.7  Rx     18FEF200  8  96 20 97 20 97 20 FF FF 
   573)      6473.2  Rx     18FEF100  8  FF 9D 20 FF FF FF FF FF 
   574)      6473.8  Rx     0CF00400  8  FF FF FF A3 20 FF FF FF 
   575)      6474.4  Rx     0CF00200  8  FF 21 FF FF FF FF FF FF 
   576)      6475.0  Rx     18FEF200  8  9D 20 9D 20 9D 20 FF FF 
   577)      6475.5  Rx     18F00100  8  FF 21 FF FF FF FF FF FF 
   578)      6476.1  Rx     18FEF100  8  FF A3 20 FF FF FF FF FF 
   579)      6476.7  Rx     0CF00400  8  FF FF FF AA 20 FF FF FF 
   580)      6477.3  Rx     0CF00200  8  FF 21 FF FF FF FF FF FF 
   581)      6477.9  Rx     18F00100  8  FF 21 FF FF FF FF FF FF 
   582)      6478.4  Rx     18FEF200  8  A3 20 A3 20 A3 20 FF FF 
   583)      6479.0  Rx     18FEF100  8  FF AA 20 FF FF FF FF FF 
   584)      6479.6  Rx     18FEF200  8  AA 20 AA 20 AA 20 FF FF 
   585)      6480.2  Rx     0CF00200  8  FF 21 FF FF FF FF FF FF 
   586)      6480.7  Rx     0CF00400  8  FF FF FF AE 20 FF FF FF 
   587)      6481.3  Rx     18F00100  8  FF 21 FF FF FF FF FF FF 
   588)      6481.9  Rx     18FEF100  8  FF AE 20 FF FF FF FF FF 
   589)      6482.5  Rx     18FEF200  8  AE 20 AE 20 AE 20 FF FF 
   590)      6483.1  Rx     0CF00400  8  FF FF FF B4 20 FF FF FF 
   591)      6483.6  Rx     0CF00200  8  FF 21 FF FF FF FF FF FF 
   592)      6484.2  Rx     18F00100  8  FF 21 FF FF FF FF FF FF 
   593)      6484.8  Rx     18FEF100  8  FF B4 20 FF FF FF FF FF 
   594)      6485.4  Rx     0CF00400  8  FF FF FF BB 20 FF FF FF 
   595)      6486.0  Rx     0CF00200  8  FF 21 FF FF FF FF FF FF 
   596)      6486.5  Rx     18FEF200  8  B4 20 B5 20 B5 20 FF FF 
   597)      6487.1  Rx     18F00100  8  FF 21 FF FF FF FF FF FF 
   598)      6487.7  Rx     18FEF100  8  FF BB 20 FF FF FF FF FF 
   599)      6488.3  Rx     0CF00400  8  FF FF FF C1 20 FF FF FF 
   600)      6488.8  Rx     18FEF200  8  BB 20 BB 20 BB 20 FF FF 
   601)      6489.4  Rx     0CF00200  8  FF 21 FF FF FF FF FF FF 
   602)      6490.0  Rx     18F00100  8  FF 21 FF FF FF FF FF FF 
   603)      6490.6  Rx     18FEF100  8  FF C1 20 FF FF FF FF FF 
   604)      6491.2  Rx     18FEF200  8  C1 20 C1 20 C1 20 FF FF 
   605)      6491.7  Rx     0CF00200  8  FF 21 FF FF FF FF FF FF 
   606)      6492.3  Rx     0CF00400  8  FF FF FF C8 20 FF FF FF 
   607)      6492.9  Rx     18F00100  8  FF 21 FF FF FF FF FF FF 
   608)      6493.5  Rx     18FEF100  8  FF C8 20 FF FF FF FF FF 
   609)      6494.1  Rx     18FEF200  8  C8 20 C8 20 C8 20 FF FF 
   610)      6494.7  Rx     0CF00200  8  FF 21 FF FF FF FF FF FF 
   611)      6495.3  Rx     0CF00400  8  FF FF FF CE 20 FF FF FF 
   612)      6495.8  Rx     18F00100  8  FF 21 FF FF FF FF FF FF 
   613)      6496.4  Rx     18FEF100  8  FF CE 20 FF FF FF FF FF 
   614)      6497.0  Rx     18FEF200  8  CE 20 CE 20 CE 20 FF FF 
   615)      6497.6  Rx     0CF00400  8  FF FF FF D5 20 FF FF FF 
   616)      6498.1  Rx     0CF00200  8  FF 21 FF FF FF FF FF FF 
   617)      6498.7  Rx     18F00100  8  FF 21 FF FF FF FF FF FF 
   618)      6499.3  Rx     18FEF100  8  FF D5 20 FF FF FF FF FF 
   619)      6499.9  Rx     18FEF200  8  D5 20 D5 20 D5 20 FF FF 
   620)      6500.5  Rx     0CF00200  8  FF 21 FF FF FF FF FF FF 
   621)      6501.0  Rx     0CF00400  8  FF FF FF DB 20 FF FF FF 
   622)      6501.6  Rx     18F00100  8  FF 21 FF FF FF FF FF FF 
   623)      6502.2  Rx     18FEF100  8  FF DB 20 FF FF FF FF FF 
   624)      6502.8  Rx     18FEF200  8  DB 20 DB 20 DB 20 FF FF 
   625)      6503.4  Rx     0CF00200  8  FF 21 FF FF FF FF FF FF 
   626)      6503.9  Rx     0CF00400  8  FF FF FF E1 20 FF FF FF 
   627)      6504.5  Rx     18F00100  8  FF 21 FF FF FF FF FF FF 
   628)      6505.1  Rx     18FEF100  8  FF E1 20 FF FF FF FF FF 
   629)      6505.7  Rx     18FEF200  8  E1 20 E2 20 E2 20 FF FF 
   630)      6506.3  Rx     0CF00400  8  FF FF FF E6 20 FF FF FF 
   631)      6506.8  Rx     0CF00200  8  FF 21 FF FF FF FF FF FF 
   632)      6507.4  Rx     18F00100  8  FF 21 FF FF FF FF FF FF 
   633)      6508.0  Rx     18FEF100  8  FF E6 20 FF FF FF FF FF 
   634)      6508.6  Rx     18FEF200  8  E6 20 E6 20 E6 20 FF FF 
   635)      6509.2  Rx     0CF00400  8  FF FF FF EC 20 FF FF FF 
   636)      6509.7  Rx     0CF00200  8  FF 21 FF FF FF FF FF FF 
   637)      6510.3  Rx     18F00100  8  FF 21 FF FF FF FF FF FF 
   638)      6510.9  Rx     18FEF100  8  FF EC 20 FF FF FF FF FF 
   639)      6511.5  Rx     18FEF200  8  EC 20 EC 20 EC 20 FF FF 
   640)      6512.1  Rx     0CF00200  8  FF 21 FF FF FF FF FF FF 
   641)      6512.7  Rx     0CF00400  8  FF FF FF F3 20 FF FF FF 
   642)      6513.2  Rx     18F00100  8  FF 21 FF FF FF FF FF FF 
   643)      6513.8  Rx     18FEF100  8  FF F3 20 FF FF FF FF FF 
   644)      6514.4  Rx     18FEF200  8  F3 20 F3 20 F3 20 FF FF 
   645)      6515.0  Rx     0CF00200  8  FF 21 FF FF FF FF FF FF 
   646)      6515.6  Rx     0CF00400  8  FF FF FF F9 20 FF FF FF 
   647)      6516.1  Rx     18F00100  8  FF 21 FF FF FF FF FF FF 
   648)      6516.7  Rx     18FEF100  8  FF F9 20 FF FF FF FF FF 
   649)      6517.3  Rx     0CF00400  8  FF FF FF FF 20 FF FF FF 
   650)      6517.9  Rx     0CF00200  8  FF 21 FF FF FF FF FF FF 
   651)      6518.5  Rx     18FEF200  8  F9 20 F9 20 F9 20 FF FF 
   652)      6519.1  Rx     18F00100  8  FF 21 FF FF FF FF FF FF 
   653)      6519.6  Rx     18FEF100  8  FF FF 20 FF FF FF FF FF 
   654)      6520.2  Rx     0CF00400  8  FF FF FF 06 21 FF FF FF 
   655)      6520.8  Rx     0CF00200  8  FF 21 FF FF FF FF FF FF 
   656)      6521.4  Rx     18F00100  8  FF 21 FF FF FF FF FF FF 
   657)      6522.0  Rx     18FEF200  8  FF 20 00 21 00 21 FF FF 
   658)      6522.5  Rx     18FEF100  8  FF 06 21 FF FF FF FF FF 
   659)      6523.1  Rx     0CF00400  8  FF FF FF 0C 21 FF FF FF 
   660)      6523.7  Rx     18FEF200  8  06 21 06 21 06 21 FF FF 
   661)      6524.3  Rx     0CF00200  8  FF 21 FF FF FF FF FF FF 
   662)      6524.8  Rx     18F00100  8  FF 21 FF FF FF FF FF FF 
   663)      6525.4  Rx     18FEF100  8  FF 0C 21 FF FF FF FF FF 
   664)      6526.0  Rx     0CF00400  8  FF FF FF 13 21 FF FF FF 
   665)      6526.5  Rx     18FEF200  8  0C 21 0C 21 0C 21 FF FF 
   666)      6527.1  Rx     0CF00200  8  FF 21 FF FF FF FF FF FF 
   667)      6527.7  Rx     18F00100  8  FF 21 FF FF FF FF FF FF 
   668)      6528.3  Rx     18FEF100  8  FF 13 21 FF FF FF FF FF 
   669)      6528.9  Rx     0CF00400  8  FF FF FF 19 21 FF FF FF 
   670)      6529.4  Rx     18FEF200  8  13 21 13 21 13 21 FF FF 
   671)      6530.0  Rx     0CF00200  8  FF 21 FF FF FF FF FF FF 
   672)      6530.6  Rx     18F00100  8  FF 21 FF FF FF FF FF FF 
   673)      6531.2  Rx     18FEF100  8  FF 19 21 FF FF FF FF FF 
   674)      6531.7  Rx     18FEF200  8  19 21 19 21 19 21 FF FF 
   675)      6532.3  Rx     0CF00400  8  FF FF FF 1D 21 FF FF FF 
   676)      6532.9  Rx     0CF00200  8  FF 21 FF FF FF FF FF FF 
   677)      6533.4  Rx     18F00100  8  FF 21 FF FF FF FF FF FF 
   678)      6534.0  Rx     18FEF100  8  FF 1D 21 FF FF FF FF FF 
   679)      6534.6  Rx     0CF00400  8  FF FF FF 24 21 FF FF FF 
   680)      6535.2  Rx     0CF00200  8  FF 21 FF FF FF FF FF FF 
   681)      6535.7  Rx     18FEF200  8  1D 21 1E 21 1E 21 FF FF 
   682)      6536.3  Rx     18F00100  8  FF 21 FF FF FF FF FF FF 
   683)      6536.9  Rx     18FEF100  8  FF 24 21 FF FF FF FF FF 
   684)      6537.5  Rx     0CF00400  8  FF FF FF 2A 21 FF FF FF 
   685)      6538.0  Rx     18FEF200  8  24 21 24 21 24 21 FF FF 
   686)      6538.6  Rx     0CF00200  8  FF 21 FF FF FF FF FF FF 
   687)      6539.2  Rx     18F00100  8  FF 21 FF FF FF FF FF FF 
   688)      6539.7  Rx     18FEF100  8  FF 2A 21 FF FF FF FF FF 
   689)      6540.3  Rx     18FEF200  8  2A 21 2A 21 2A 21 FF FF 
   690)      6540.9  Rx     0CF00200  8  FF 21 FF FF FF FF FF FF 
   691)      6541.5  Rx     0CF00400  8  FF FF FF 31 21 FF FF FF 
   692)      6542.0  Rx     18F00100  8  FF 21 FF FF FF FF FF FF 
   693)      6542.6  Rx     18FEF100  8  FF 31 21 FF FF FF FF FF 
   694)      6543.2  Rx     0CF00400  8  FF FF FF 37 21 FF FF FF 
   695)      6543.8  Rx     0CF00200  8  FF 21 FF FF FF FF FF FF 
   696)      6544.4  Rx     18FEF200  8  31 21 31 21 31 21 FF FF 
   697)      6544.9  Rx     18F00100  8  FF 21 FF FF FF FF FF FF 
   698)      6545.5  Rx     18FEF100  8  FF 37 21 FF FF FF FF FF 
   699)      6546.1  Rx     18FEF200  8  37 21 37 21 37 21 FF FF 
   700)      6546.6  Rx     0CF00200  8  FF 21 FF FF FF FF FF FF 
   701)      6547.2  Rx     0CF00400  8  FF FF FF 3E 21 FF FF FF 
   702)      6547.8  Rx     18F00100  8  FF 21 FF FF FF FF FF FF 
   703)      6548.4  Rx     18FEF100  8  FF 3E 21 FF FF FF FF FF 
   704)      6549.0  Rx     0CF00400  8  FF FF FF 44 21 FF FF FF 
   705)      6549.5  Rx     0CF00200  8  FF 21 FF FF FF FF FF FF 
   706)      6550.1  Rx     18F00100  8  FF 21 FF FF FF FF FF FF 
   707)      6550.7  Rx     18FEF100  8  FF 44 21 FF FF FF FF FF 
   708)      6551.3  Rx     18FEF200  8  3E 21 3E 21 3E 21 FF FF 
   709)      6551.8  Rx     18FEF200  8  44 21 44 21 44 21 FF FF 
   710)      6552.4  Rx     0CF00200  8  FF 21 FF FF FF FF FF FF 
   711)      6553.0  Rx     0CF00400  8  FF FF FF 48 21 FF FF FF 
   712)      6553.6  Rx     18F00100  8  FF 21 FF FF FF FF FF FF 
   713)      6554.1  Rx     18FEF100  8  FF 48 21 FF FF FF FF FF 
   714)      6554.7  Rx     0CF00400  8  FF FF FF 4F 21 FF FF FF 
   715)      6555.3  Rx     0CF00200  8  FF 21 FF FF FF FF FF FF 
   716)      6555.8  Rx     18FEF200  8  48 21 48 21 48 21 FF FF 
   717)      6556.4  Rx     18F00100  8  FF 21 FF FF FF FF FF FF 
   718)      6557.0  Rx     18FEF100  8  FF 4F 21 FF FF FF FF FF 
   719)      6557.6  Rx     0CF00400  8  FF FF FF 55 21 FF FF FF 
   720)      6558.2  Rx     0CF00200  8  FF 21 FF FF FF FF FF FF 
   721)      6558.7  Rx     18F00100  8  FF 21 FF FF FF FF FF FF 
   722)      6559.3  Rx     18FEF100  8  FF 55 21 FF FF FF FF FF 
   723)      6559.9  Rx     18FEF200  8  4F 21 4F 21 4F 21 FF FF 
   724)      6560.4  Rx     18FEF200  8  55 21 55 21 55 21 FF FF 
   725)      6561.0  Rx     0CF00200  8  FF 21 FF FF FF FF FF FF 
   726)      6561.6  Rx     0CF00400  8  FF FF FF 5B 21 FF FF FF 
   727)      6562.2  Rx     18F00100  8  FF 21 FF FF FF FF FF FF 
   728)      6562.7  Rx     18FEF100  8  FF 5B 21 FF FF FF FF FF 
   729)      6563.3  Rx     18FEF200  8  5B 21 5C 21 5C 21 FF FF 
   730)      6563.9  Rx     0CF00200  8  FF 21 FF FF FF FF FF FF 
   731)      6564.4  Rx     0CF00400  8  FF FF FF 62 21 FF FF FF 
   732)      6565.0  Rx     18F00100  8  FF 21 FF FF FF FF FF FF 
   733)      6565.6  Rx     18FEF100  8  FF 62 21 FF FF FF FF FF 
   734)      6566.2  Rx     18FEF200  8  62 21 62 21 62 21 FF FF 
   735)      6566.8  Rx     0CF00200  8  FF 21 FF FF FF FF FF FF 
   736)      6567.3  Rx     0CF00400  8  FF FF FF 68 21 FF FF FF 
   737)      6567.9  Rx     18F00100  8  FF 21 FF FF FF FF FF FF 
   738)      6568.5  Rx     18FEF100  8  FF 68 21 FF FF FF FF FF 
   739)      6569.1  Rx     18FEF200  8  68 21 68 21 68 21 FF FF 
   740)      6569.7  Rx     0CF00200  8  FF 21 FF FF FF FF FF FF 
   741)      6570.2  Rx     0CF00400  8  FF FF FF 6F 21 FF FF FF 
   742)      6570.8  Rx     18F00100  8  FF 21 FF FF FF FF FF FF 
   743)      6571.4  Rx     18FEF100  8  FF 6F 21 FF FF FF FF FF 
   744)      6572.0  Rx     0CF00400  8  FF FF FF 73 21 FF FF FF 
   745)      6572.6  Rx     0CF00200  8  FF 21 FF FF FF FF FF FF 
   746)      6573.1  Rx     18F00100  8  FF 21 FF FF FF FF FF FF 
   747)      6573.7  Rx     18FEF200  8  6F 21 6F 21 6F 21 FF FF 
   748)      6574.3  Rx     18FEF100  8  FF 73 21 FF FF FF FF FF 
   749)      6574.8  Rx     0CF00400  8  FF FF FF 79 21 FF FF FF 
   750)      6575.4  Rx     0CF00200  8  FF 21 FF FF FF FF FF FF 
   751)      6576.0  Rx     18F00100  8  FF 21 FF FF FF FF FF FF 
   752)      6576.5  Rx     18FEF200  8  73 21 73 21 73 21 FF FF 
   753)      6577.1  Rx     18FEF100  8  FF 79 21 FF FF FF FF FF 
   754)      6577.7  Rx     0CF00400  8  FF FF FF 80 21 FF FF FF 
   755)      6578.3  Rx     0CF00200  8  FF 21 FF FF FF FF FF FF 
   756)      6578.9  Rx     18F00100  8  FF 21 FF FF FF FF FF FF 
   757)      6579.4  Rx     18FEF200  8  79 21 7A 21 7A 21 FF FF 
   758)      6580.0  Rx     18FEF100  8  FF 80 21 FF FF FF FF FF 
   759)      6580.6  Rx     0CF00400  8  FF FF FF 86 21 FF FF FF 
   760)      6581.2  Rx     0CF00200  8  FF 21 FF FF FF FF FF FF 
   761)      6581.7  Rx     18F00100  8  FF 21 FF FF FF FF FF FF 
   762)      6582.3  Rx     18FEF200  8  80 21 80 21 80 21 FF FF 
   763)      6582.9  Rx     18FEF100  8  FF 86 21 FF FF FF FF FF 
   764)      6583.4  Rx     18FEF200  8  86 21 86 21 86 21 FF FF 
   765)      6584.0  Rx     0CF00200  8  FF 21 FF FF FF FF FF FF 
   766)      6584.6  Rx     0CF00400  8  FF FF FF 8D 21 FF FF FF 
   767)      6585.2  Rx     18F00100  8  FF 21 FF FF FF FF FF FF 
   768)      6585.7  Rx     18FEF100  8  FF 8D 21 FF FF FF FF FF 
   769)      6586.3  Rx     0CF00400  8  FF FF FF 93 21 FF FF FF 
   770)      6586.8  Rx     18FEF200  8  8D 21 8D 21 8D 21 FF FF 
   771)      6587.4  Rx     0CF00200  8  FF 21 FF FF FF FF FF FF 
   772)      6588.0  Rx     18F00100  8  FF 21 FF FF FF FF FF FF 
   773)      6588.6  Rx     18FEF100  8  FF 93 21 FF FF FF FF FF 
   774)      6589.2  Rx     0CF00400  8  FF FF FF 9A 21 FF FF FF 
   775)      6589.8  Rx     0CF00200  8  FF 21 FF FF FF FF FF FF 
   776)      6590.3  Rx     18F00100  8  FF 21 FF FF FF FF FF FF 
   777)      6590.9  Rx     18FEF200  8  93 21 93 21 93 21 FF FF 
   778)      6591.5  Rx     18FEF100  8  FF 9A 21 FF FF FF FF FF 
   779)      6592.1  Rx     0CF00400  8  FF FF FF 9E 21 FF FF FF 
   780)      6592.6  Rx     0CF00200  8  FF 21 FF FF FF FF FF FF 
   781)      6593.2  Rx     18F00100  8  FF 21 FF FF FF FF FF FF 
   782)      6593.8  Rx     18FEF200  8  9A 21 9A 21 9A 21 FF FF 
   783)      6594.4  Rx     18FEF100  8  FF 9E 21 FF FF FF FF FF 
   784)      6595.0  Rx     0CF00400  8  FF FF FF A4 21 FF FF FF 
   785)      6595.5  Rx     18FEF200  8  9E 21 9E 21 9E 21 FF FF 
   786)      6596.1  Rx     0CF00200  8  FF 22 FF FF FF FF FF FF 
   787)      6596.7  Rx     18F00100  8  FF 22 FF FF FF FF FF FF 
   788)      6597.2  Rx     18FEF100  8  FF A4 21 FF FF FF FF FF 
   789)      6597.8  Rx     0CF00400  8  FF FF FF AB 21 FF FF FF 
   790)      6598.4  Rx     0CF00200  8  FF 22 FF FF FF FF FF FF 
   791)      6598.9  Rx     18FEF200  8  A4 21 A4 21 A4 21 FF FF 
   792)      6599.5  Rx     18F00100  8  FF 22 FF FF FF FF FF FF 
   793)      6600.1  Rx     18FEF100  8  FF AB 21 FF FF FF FF FF 
   794)      6600.7  Rx     0CF00400  8  FF FF FF B1 21 FF FF FF 
   795)      6601.2  Rx     0CF00200  8  FF 22 FF FF FF FF FF FF 
   796)      6601.8  Rx     18FEF200  8  AB 21 AB 21 AB 21 FF FF 
   797)      6602.4  Rx     18F00100  8  FF 22 FF FF FF FF FF FF 
   798)      6602.9  Rx     18FEF100  8  FF B1 21 FF FF FF FF FF 
   799)      6603.5  Rx     18FEF200  8  B1 21 B1 21 B1 21 FF FF 
   800)      6604.1  Rx     0CF00200  8  FF 22 FF FF FF FF FF FF 
   801)      6604.7  Rx     0CF00400  8  FF FF FF B8 21 FF FF FF 
   802)      6605.2  Rx     18F00100  8  FF 22 FF FF FF FF FF FF 
   803)      6605.8  Rx     18FEF100  8  FF B8 21 FF FF FF FF FF 
   804)      6606.4  Rx     18FEF200  8  B8 21 B8 21 B8 21 FF FF 
   805)      6607.0  Rx     0CF00200  8  FF 22 FF FF FF FF FF FF 
   806)      6607.5  Rx     0CF00400  8  FF FF FF BE 21 FF FF FF 
   807)      6608.1  Rx     18F00100  8  FF 22 FF FF FF FF FF FF 
   808)      6608.7  Rx     18FEF100  8  FF BE 21 FF FF FF FF FF 
   809)      6609.3  Rx     0CF00400  8  FF FF FF C4 21 FF FF FF 
   810)      6609.8  Rx     18FEF200  8  BE 21 BE 21 BE 21 FF FF 
   811)      6610.4  Rx     0CF00200  8  FF 22 FF FF FF FF FF FF 
   812)      6611.0  Rx     18F00100  8  FF 22 FF FF FF FF FF FF 
   813)      6611.6  Rx     18FEF100  8  FF C4 21 FF FF FF FF FF 
   814)      6612.2  Rx     0CF00400  8  FF FF FF CB 21 FF FF FF 
   815)      6612.7  Rx     18FEF200  8  C4 21 C5 21 C5 21 FF FF 
   816)      6613.3  Rx     0CF00200  8  FF 22 FF FF FF FF FF FF 
   817)      6613.9  Rx     18F00100  8  FF 22 FF FF FF FF FF FF 
   818)      6614.5  Rx     18FEF100  8  FF CB 21 FF FF FF FF FF 
   819)      6615.0  Rx     0CF00400  8  FF FF FF CF 21 FF FF FF 
   820)      6615.6  Rx     0CF00200  8  FF 22 FF FF FF FF FF FF 
   821)      6616.2  Rx     18F00100  8  FF 22 FF FF FF FF FF FF 
   822)      6616.8  Rx     18FEF200  8  CB 21 CB 21 CB 21 FF FF 
   823)      6617.4  Rx     18FEF100  8  FF CF 21 FF FF FF FF FF 
   824)      6617.9  Rx     18FEF200  8  CF 21 CF 21 CF 21 FF FF 
   825)      6618.5  Rx     0CF00200  8  FF 22 FF FF FF FF FF FF 
   826)      6619.1  Rx     0CF00400  8  FF FF FF D6 21 FF FF FF 
   827)      6619.6  Rx     18F00100  8  FF 22 FF FF FF FF FF FF 
   828)      6620.2  Rx     18FEF100  8  FF D6 21 FF FF FF FF FF 
   829)      6620.8  Rx     0CF00400  8  FF FF FF DC 21 FF FF FF 
   830)      6621.4  Rx     0CF00200  8  FF 22 FF FF FF FF FF FF 
   831)      6621.9  Rx     18FEF200  8  D6 21 D6 21 D6 21 FF FF 
   832)      6622.5  Rx     18F00100  8  FF 22 FF FF FF FF FF FF 
   833)      6623.1  Rx     18FEF100  8  FF DC 21 FF FF FF FF FF 
   834)      6623.6  Rx     18FEF200  8  DC 21 DC 21 DC 21 FF FF 
   835)      6624.2  Rx     0CF00200  8  FF 22 FF FF FF FF FF FF 
   836)      6624.8  Rx     0CF00400  8  FF FF FF E2 21 FF FF FF 
   837)      6625.4  Rx     18F00100  8  FF 22 FF FF FF FF FF FF 
   838)      6625.9  Rx     18FEF100  8  FF E2 21 FF FF FF FF FF 
   839)      6626.5  Rx     0CF00400  8  FF FF FF E9 21 FF FF FF 
   840)      6627.1  Rx     0CF00200  8  FF 22 FF FF FF FF FF FF 
   841)      6627.6  Rx     18FEF200  8  E2 21 E3 21 E3 21 FF FF 
   842)      6628.2  Rx     18F00100  8  FF 22 FF FF FF FF FF FF 
   843)      6628.8  Rx     18FEF100  8  FF E9 21 FF FF FF FF FF 
   844)      6629.3  Rx     18FEF200  8  E9 21 E9 21 E9 21 FF FF 
   845)      6629.9  Rx     0CF00200  8  FF 22 FF FF FF FF FF FF 
   846)      6630.5  Rx     0CF00400  8  FF FF FF EF 21 FF FF FF 
   847)      6631.1  Rx     18F00100  8  FF 22 FF FF FF FF FF FF 
   848)      6631.7  Rx     18FEF100  8  FF EF 21 FF FF FF FF FF 
   849)      6632.2  Rx     18FEF200  8  EF 21 EF 21 EF 21 FF FF 
   850)      6632.8  Rx     0CF00200  8  FF 22 FF FF FF FF FF FF 
   851)      6633.4  Rx     0CF00400  8  FF FF FF F6 21 FF FF FF 
   852)      6633.9  Rx     18F00100  8  FF 22 FF FF FF FF FF FF 
   853)      6634.5  Rx     18FEF100  8  FF F6 21 FF FF FF FF FF 
   854)      6635.1  Rx     18FEF200  8  F6 21 F6 21 F6 21 FF FF 
   855)      6635.7  Rx     0CF00200  8  FF 22 FF FF FF FF FF FF 
   856)      6636.3  Rx     0CF00400  8  FF FF FF FA 21 FF FF FF 
   857)      6636.9  Rx     18F00100  8  FF 22 FF FF FF FF FF FF 
   858)      6637.4  Rx     18FEF100  8  FF FA 21 FF FF FF FF FF 
   859)      6638.0  Rx     18FEF200  8  FA 21 FA 21 FA 21 FF FF 
   860)      6638.6  Rx     0CF00200  8  FF 22 FF FF FF FF FF FF 
   861)      6639.2  Rx     0CF00400  8  FF FF FF 00 22 FF FF FF 
   862)      6639.7  Rx     18F00100  8  FF 22 FF FF FF FF FF FF 
   863)      6640.3  Rx     18FEF100  8  FF 00 22 FF FF FF FF FF 
   864)      6640.9  Rx     0CF00400  8  FF FF FF 07 22 FF FF FF 
   865)      6641.5  Rx     0CF00200  8  FF 22 FF FF FF FF FF FF 
   866)      6642.1  Rx     18F00100  8  FF 22 FF FF FF FF FF FF 
   867)      6642.6  Rx     18FEF200  8  00 22 01 22 01 22 FF FF 
   868)      6643.2  Rx     18FEF100  8  FF 07 22 FF FF FF FF FF 
   869)      6643.8  Rx     18FEF200  8  07 22 07 22 07 22 FF FF 
   870)      6644.3  Rx     0CF00200  8  FF 22 FF FF FF FF FF FF 
   871)      6644.9  Rx     0CF00400  8  FF FF FF 0D 22 FF FF FF 
   872)      6645.5  Rx     18F00100  8  FF 22 FF FF FF FF FF FF 
   873)      6646.1  Rx     18FEF100  8  FF 0D 22 FF FF FF FF FF 
   874)      6646.7  Rx     0CF00400  8  FF FF FF 14 22 FF FF FF 
   875)      6647.2  Rx     18FEF200  8  0D 22 0D 22 0D 22 FF FF 
   876)      6647.8  Rx     0CF00200  8  FF 22 FF FF FF FF FF FF 
   877)      6648.4  Rx     18F00100  8  FF 22 FF FF FF FF FF FF 
   878)      6648.9  Rx     18FEF100  8  FF 14 22 FF FF FF FF FF 
   879)      6649.5  Rx     18FEF200  8  14 22 14 22 14 22 FF FF 
   880)      6650.1  Rx     0CF00200  8  FF 22 FF FF FF FF FF FF 
   881)      6650.7  Rx     0CF00400  8  FF FF FF 1A 22 FF FF FF 
   882)      6651.2  Rx     18F00100  8  FF 22 FF FF FF FF FF FF 
   883)      6651.8  Rx     18FEF100  8  FF 1A 22 FF FF FF FF FF 
   884)      6652.4  Rx     0CF00400  8  FF FF FF 21 22 FF FF FF 
   885)      6653.0  Rx     0CF00200  8  FF 22 FF FF FF FF FF FF 
   886)      6653.5  Rx     18F00100  8  FF 22 FF FF FF FF FF FF 
   887)      6654.1  Rx     18FEF200  8  1A 22 1A 22 1A 22 FF FF 
   888)      6654.7  Rx     18FEF100  8  FF 21 22 FF FF FF FF FF 
   889)      6655.2  Rx     18FEF200  8  21 22 21 22 21 22 FF FF 
   890)      6655.8  Rx     0CF00400  8  FF FF FF 25 22 FF FF FF 
   891)      6656.4  Rx     0CF00200  8  FF 22 FF FF FF FF FF FF 
   892)      6656.9  Rx     18F00100  8  FF 22 FF FF FF FF FF FF 
   893)      6657.5  Rx     18FEF100  8  FF 25 22 FF FF FF FF FF 
   894)      6658.1  Rx     0CF00400  8  FF FF FF 2B 22 FF FF FF 
   895)      6658.7  Rx     0CF00200  8  FF 22 FF FF FF FF FF FF 
   896)      6659.3  Rx     18FEF200  8  25 22 25 22 25 22 FF FF 
   897)      6659.8  Rx     18F00100  8  FF 22 FF FF FF FF FF FF 
   898)      6660.4  Rx     18FEF100  8  FF 2B 22 FF FF FF FF FF 
   899)      6661.0  Rx     18FEF200  8  2B 22 2B 22 2B 22 FF FF 
   900)      6661.5  Rx     0CF00200  8  FF 22 FF FF FF FF FF FF 
   901)      6662.1  Rx     0CF00400  8  FF FF FF 32 22 FF FF FF 
   902)      6662.7  Rx     18F00100  8  FF 22 FF FF FF FF FF FF 
   903)      6663.3  Rx     18FEF100  8  FF 32 22 FF FF FF FF FF 
   904)      6663.8  Rx     0CF00400  8  FF FF FF 38 22 FF FF FF 
   905)      6664.4  Rx     0CF00200  8  FF 22 FF FF FF FF FF FF 
   906)      6665.0  Rx     18FEF200  8  32 22 32 22 32 22 FF FF 
   907)      6665.5  Rx     18F00100  8  FF 22 FF FF FF FF FF FF 
   908)      6666.1  Rx     18FEF100  8  FF 38 22 FF FF FF FF FF 
   909)      6666.7  Rx     0CF00400  8  FF FF FF 3F 22 FF FF FF 
   910)      6667.3  Rx     0CF00200  8  FF 22 FF FF FF FF FF FF 
   911)      6667.9  Rx     18F00100  8  FF 22 FF FF FF FF FF FF 
   912)      6668.4  Rx     18FEF100  8  FF 3F 22 FF FF FF FF FF 
   913)      6669.0  Rx     18FEF200  8  38 22 38 22 38 22 FF FF 
   914)      6669.6  Rx     18FEF200  8  3F 22 3F 22 3F 22 FF FF 
   915)      6670.2  Rx     0CF00400  8  FF FF FF 45 22 FF FF FF 
   916)      6670.7  Rx     0CF00200  8  FF 22 FF FF FF FF FF FF 
   917)      6671.3  Rx     18F00100  8  FF 22 FF FF FF FF FF FF 
   918)      6671.9  Rx     18FEF100  8  FF 45 22 FF FF FF FF FF 
   919)      6672.5  Rx     0CF00400  8  FF FF FF 4B 22 FF FF FF 
   920)      6673.0  Rx     0CF00200  8  FF 22 FF FF FF FF FF FF 
   921)      6673.6  Rx     18FEF200  8  45 22 45 22 45 22 FF FF 
   922)      6674.2  Rx     18F00100  8  FF 22 FF FF FF FF FF FF 
   923)      6674.7  Rx     18FEF100  8  FF 4B 22 FF FF FF FF FF 
   924)      6675.3  Rx     0CF00400  8  FF FF FF 50 22 FF FF FF 
   925)      6675.9  Rx     0CF00200  8  FF 22 FF FF FF FF FF FF 
   926)      6676.4  Rx     18FEF200  8  4B 22 4C 22 4C 22 FF FF 
   927)      6677.0  Rx     18F00100  8  FF 22 FF FF FF FF FF FF 
   928)      6677.6  Rx     18FEF100  8  FF 50 22 FF FF FF FF FF 
   929)      6678.2  Rx     0CF00400  8  FF FF FF 56 22 FF FF FF 
   930)      6678.8  Rx     0CF00200  8  FF 22 FF FF FF FF FF FF 
   931)      6679.3  Rx     18FEF200  8  50 22 50 22 50 22 FF FF 
   932)      6679.9  Rx     18F00100  8  FF 22 FF FF FF FF FF FF 
   933)      6680.5  Rx     18FEF100  8  FF 56 22 FF FF FF FF FF 
   934)      6681.1  Rx     0CF00400  8  FF FF FF 5D 22 FF FF FF 
   935)      6681.6  Rx     18FEF200  8  56 22 56 22 56 22 FF FF 
   936)      6682.2  Rx     0CF00200  8  FF 22 FF FF FF FF FF FF 
   937)      6682.8  Rx     18F00100  8  FF 22 FF FF FF FF FF FF 
   938)      6683.4  Rx     18FEF100  8  FF 5D 22 FF FF FF FF FF 
   939)      6683.9  Rx     18FEF200  8  5D 22 5D 22 5D 22 FF FF 
   940)      6684.5  Rx     0CF00200  8  FF 22 FF FF FF FF FF FF 
   941)      6685.1  Rx     0CF00400  8  FF FF FF 63 22 FF FF FF 
   942)      6685.6  Rx     18F00100  8  FF 22 FF FF FF FF FF FF 
   943)      6686.2  Rx     18FEF100  8  FF 63 22 FF FF FF FF FF 
   944)      6686.8  Rx     18FEF200  8  63 22 63 22 63 22 FF FF 
   945)      6687.3  Rx     0CF00200  8  FF 22 FF FF FF FF FF FF 
   946)      6687.9  Rx     0CF00400  8  FF FF FF 69 22 FF FF FF 
   947)      6688.5  Rx     18F00100  8  FF 22 FF FF FF FF FF FF 
   948)      6689.1  Rx     18FEF100  8  FF 69 22 FF FF FF FF FF 
   949)      6689.6  Rx     0CF00400  8  FF FF FF 70 22 FF FF FF 
   950)      6690.2  Rx     18FEF200  8  69 22 69 22 69 22 FF FF 
   951)      6690.8  Rx     0CF00200  8  FF 22 FF FF FF FF FF FF 
   952)      6691.3  Rx     18F00100  8  FF 22 FF FF FF FF FF FF 
   953)      6691.9  Rx     18FEF100  8  FF 70 22 FF FF FF FF FF 
   954)      6692.5  Rx     0CF00400  8  FF FF FF 76 22 FF FF FF 
   955)      6693.1  Rx     18FEF200  8  70 22 70 22 70 22 FF FF 
   956)      6693.6  Rx     0CF00200  8  FF 22 FF FF FF FF FF FF 
   957)      6694.2  Rx     18F00100  8  FF 22 FF FF FF FF FF FF 
   958)      6694.8  Rx     18FEF100  8  FF 76 22 FF FF FF FF FF 
   959)      6695.4  Rx     0CF00400  8  FF FF FF 7A 22 FF FF FF 
   960)      6695.9  Rx     0CF00200  8  FF 22 FF FF FF FF FF FF 
   961)      6696.5  Rx     18F00100  8  FF 22 FF FF FF FF FF FF 
   962)      6697.1  Rx     18FEF200  8  76 22 76 22 76 22 FF FF 
   963)      6697.7  Rx     18FEF100  8  FF 7A 22 FF FF FF FF FF 
   964)      6698.2  Rx     0CF00400  8  FF FF FF 81 22 FF FF FF 
   965)      6698.8  Rx     0CF00200  8  FF 22 FF FF FF FF FF FF 
   966)      6699.4  Rx     18FEF200  8  7A 22 7B 22 7B 22 FF FF 
   967)      6700.0  Rx     18F00100  8  FF 22 FF FF FF FF FF FF 
   968)      6700.6  Rx     18FEF100  8  FF 81 22 FF FF FF FF FF 
   969)      6701.1  Rx     18FEF200  8  81 22 81 22 81 22 FF FF 
   970)      6701.7  Rx     0CF00200  8  FF 22 FF FF FF FF FF FF 
   971)      6702.3  Rx     0CF00400  8  FF FF FF 87 22 FF FF FF 
   972)      6702.9  Rx     18F00100  8  FF 22 FF FF FF FF FF FF 
   973)      6703.4  Rx     18FEF100  8  FF 87 22 FF FF FF FF FF 
   974)      6704.0  Rx     0CF00400  8  FF FF FF 8E 22 FF FF FF 
   975)      6704.6  Rx     0CF00200  8  FF 22 FF FF FF FF FF FF 
   976)      6705.1  Rx     18FEF200  8  87 22 87 22 87 22 FF FF 
   977)      6705.7  Rx     18F00100  8  FF 22 FF FF FF FF FF FF 
   978)      6706.3  Rx     18FEF100  8  FF 8E 22 FF FF FF FF FF 
   979)      6706.8  Rx     18FEF200  8  8E 22 8E 22 8E 22 FF FF 
   980)      6707.4  Rx     0CF00200  8  FF 22 FF FF FF FF FF FF 
   981)      6708.0  Rx     0CF00400  8  FF FF FF 94 22 FF FF FF 
   982)      6708.6  Rx     18F00100  8  FF 22 FF FF FF FF FF FF 
   983)      6709.1  Rx     18FEF100  8  FF 94 22 FF FF FF FF FF 
   984)      6709.7  Rx     18FEF200  8  94 22 94 22 94 22 FF FF 
   985)      6710.3  Rx     0CF00200  8  FF 22 FF FF FF FF FF FF 
   986)      6710.8  Rx     0CF00400  8  FF FF FF 9B 22 FF FF FF 
   987)      6711.4  Rx     18F00100  8  FF 22 FF FF FF FF FF FF 
   988)      6712.0  Rx     18FEF100  8  FF 9B 22 FF FF FF FF FF 
   989)      6712.5  Rx     18FEF200  8  9B 22 9B 22 9B 22 FF FF 
   990)      6713.1  Rx     0CF00400  8  FF FF FF A1 22 FF FF FF 
   991)      6713.7  Rx     0CF00200  8  FF 22 FF FF FF FF FF FF 
   992)      6714.3  Rx     18F00100  8  FF 22 FF FF FF FF FF FF 
   993)      6714.8  Rx     18FEF100  8  FF A1 22 FF FF FF FF FF 
   994)      6715.4  Rx     18FEF200  8  A1 22 A1 22 A1 22 FF FF 
   995)      6716.0  Rx     0CF00400  8  FF FF FF A5 22 FF FF FF 
   996)      6716.6  Rx     0CF00200  8  FF 23 FF FF FF FF FF FF 
   997)      6717.1  Rx     18F00100  8  FF 23 FF FF FF FF FF FF 
   998)      6717.7  Rx     18FEF100  8  FF A5 22 FF FF FF FF FF 
   999)      6718.3  Rx     0CF00400  8  FF FF FF AC 22 FF FF FF 
  1000)      6718.9  Rx     0CF00200  8  FF 23 FF FF FF FF FF FF 
  1001)      6719.5  Rx     18FEF200  8  A5 22 A5 22 A5 22 FF FF 
  1002)      6720.0  Rx     18F00100  8  FF 23 FF FF FF FF FF FF 
  1003)      6720.6  Rx     18FEF100  8  FF AC 22 FF FF FF FF FF 
  1004)      6721.2  Rx     18FEF200  8  AC 22 AC 22 AC 22 FF FF 
  1005)      6721.7  Rx     0CF00200  8  FF 23 FF FF FF FF FF FF 
  1006)      6722.3  Rx     0CF00400  8  FF FF FF B2 22 FF FF FF 
  1007)      6722.9  Rx     18F00100  8  FF 23 FF FF FF FF FF FF 
  1008)      6723.5  Rx     18FEF100  8  FF B2 22 FF FF FF FF FF 
  1009)      6724.0  Rx     18FEF200  8  B2 22 B2 22 B2 22 FF FF 
  1010)      6724.6  Rx     0CF00200  8  FF 23 FF FF FF FF FF FF 
  1011)      6725.2  Rx     0CF00400  8  FF FF FF B9 22 FF FF FF 
  1012)      6725.8  Rx     18F00100  8  FF 23 FF FF FF FF FF FF 
  1013)      6726.3  Rx     18FEF100  8  FF B9 22 FF FF FF FF FF 
  1014)      6726.9  Rx     18FEF200  8  B9 22 B9 22 B9 22 FF FF 
  1015)      6727.5  Rx     0CF00200  8  FF 23 FF FF FF FF FF FF 
  1016)      6728.0  Rx     0CF00400  8  FF FF FF BF 22 FF FF FF 
  1017)      6728.6  Rx     18F00100  8  FF 23 FF FF FF FF FF FF 
  1018)      6729.2  Rx     18FEF100  8  FF BF 22 FF FF FF FF FF 
  1019)      6729.8  Rx     18FEF200  8  BF 22 BF 22 BF 22 FF FF 
  1020)      6730.4  Rx     0CF00200  8  FF 23 FF FF FF FF FF FF 
  1021)      6730.9  Rx     0CF00400  8  FF FF FF C5 22 FF FF FF 
  1022)      6731.5  Rx     18F00100  8  FF 23 FF FF FF FF FF FF 
  1023)      6732.1  Rx     18FEF100  8  FF C5 22 FF FF FF FF FF 
  1024)      6732.6  Rx     18FEF200  8  C5 22 C6 22 C6 22 FF FF 
  1025)      6733.2  Rx     0CF00200  8  FF 23 FF FF FF FF FF FF 
  1026)      6733.8  Rx     0CF00400  8  FF FF FF CC 22 FF FF FF 
  1027)      6734.4  Rx     18F00100  8  FF 23 FF FF FF FF FF FF 
  1028)      6735.0  Rx     18FEF100  8  FF CC 22 FF FF FF FF FF 
  1029)      6735.5  Rx     18FEF200  8  CC 22 CC 22 CC 22 FF FF 
  1030)      6736.1  Rx     0CF00200  8  FF 23 FF FF FF FF FF FF 
  1031)      6736.7  Rx     0CF00400  8  FF FF FF D0 22 FF FF FF 
  1032)      6737.3  Rx     18F00100  8  FF 23 FF FF FF FF FF FF 
  1033)      6737.8  Rx     18FEF100  8  FF D0 22 FF FF FF FF FF 
  1034)      6738.4  Rx     0CF00400  8  FF FF FF D7 22 FF FF FF 
  1035)      6739.0  Rx     18FEF200  8  D0 22 D0 22 D0 22 FF FF 
  1036)      6739.6  Rx     0CF00200  8  FF 23 FF FF FF FF FF FF 
  1037)      6740.1  Rx     18F00100  8  FF 23 FF FF FF FF FF FF 
  1038)      6740.7  Rx     18FEF100  8  FF D7 22 FF FF FF FF FF 
  1039)      6741.3  Rx     18FEF200  8  D7 22 D7 22 D7 22 FF FF 
  1040)      6741.9  Rx     0CF00200  8  FF 23 FF FF FF FF FF FF 
  1041)      6742.4  Rx     0CF00400  8  FF FF FF DD 22 FF FF FF 
  1042)      6743.0  Rx     18F00100  8  FF 23 FF FF FF FF FF FF 
  1043)      6743.6  Rx     18FEF100  8  FF DD 22 FF FF FF FF FF 
  1044)      6744.2  Rx     0CF00400  8  FF FF FF E3 22 FF FF FF 
  1045)      6744.8  Rx     0CF00200  8  FF 23 FF FF FF FF FF FF 
  1046)      6745.3  Rx     18FEF200  8  DD 22 DD 22 DD 22 FF FF 
  1047)      6745.9  Rx     18F00100  8  FF 23 FF FF FF FF FF FF 
  1048)      6746.5  Rx     18FEF100  8  FF E3 22 FF FF FF FF FF 
  1049)      6747.0  Rx     18FEF200  8  E3 22 E4 22 E4 22 FF FF 
  1050)      6747.6  Rx     0CF00200  8  FF 23 FF FF FF FF FF FF 
  1051)      6748.2  Rx     0CF00400  8  FF FF FF EA 22 FF FF FF 
  1052)      6748.8  Rx     18F00100  8  FF 23 FF FF FF FF FF FF 
  1053)      6749.4  Rx     18FEF100  8  FF EA 22 FF FF FF FF FF 
  1054)      6749.9  Rx     0CF00400  8  FF FF FF F0 22 FF FF FF 
  1055)      6750.5  Rx     18FEF200  8  EA 22 EA 22 EA 22 FF FF 
  1056)      6751.1  Rx     0CF00200  8  FF 23 FF FF FF FF FF FF 
  1057)      6751.7  Rx     18F00100  8  FF 23 FF FF FF FF FF FF 
  1058)      6752.2  Rx     18FEF100  8  FF F0 22 FF FF FF FF FF 
  1059)      6752.8  Rx     18FEF200  8  F0 22 F0 22 F0 22 FF FF 
  1060)      6753.4  Rx     0CF00400  8  FF FF FF F7 22 FF FF FF 
  1061)      6754.0  Rx     0CF00200  8  FF 23 FF FF FF FF FF FF 
  1062)      6754.5  Rx     18F00100  8  FF 23 FF FF FF FF FF FF 
  1063)      6755.1  Rx     18FEF100  8  FF F7 22 FF FF FF FF FF 
  1064)      6755.7  Rx     18FEF200  8  F7 22 F7 22 F7 22 FF FF 
  1065)      6756.2  Rx     0CF00400  8  FF FF FF FD 22 FF FF FF 
  1066)      6756.8  Rx     0CF00200  8  FF 23 FF FF FF FF FF FF 
  1067)      6757.4  Rx     18F00100  8  FF 23 FF FF FF FF FF FF 
  1068)      6758.0  Rx     18FEF100  8  FF FD 22 FF FF FF FF FF 
  1069)      6758.6  Rx     0CF00400  8  FF FF FF 01 23 FF FF FF 
  1070)      6759.2  Rx     0CF00200  8  FF 23 FF FF FF FF FF FF 
  1071)      6759.7  Rx     18FEF200  8  FD 22 FD 22 FD 22 FF FF 
  1072)      6760.3  Rx     18F00100  8  FF 23 FF FF FF FF FF FF 
  1073)      6760.9  Rx     18FEF100  8  FF 01 23 FF FF FF FF FF 
  1074)      6761.5  Rx     0CF00400  8  FF FF FF 08 23 FF FF FF 
  1075)      6762.0  Rx     0CF00200  8  FF 23 FF FF FF FF FF FF 
  1076)      6762.6  Rx     18FEF200  8  01 23 02 23 02 23 FF FF 
  1077)      6763.2  Rx     18F00100  8  FF 23 FF FF FF FF FF FF 
  1078)      6763.8  Rx     18FEF100  8  FF 08 23 FF FF FF FF FF 
  1079)      6764.3  Rx     0CF00400  8  FF FF FF 0E 23 FF FF FF 
  1080)      6764.9  Rx     0CF00200  8  FF 23 FF FF FF FF FF FF 
  1081)      6765.5  Rx     18FEF200  8  08 23 08 23 08 23 FF FF 
  1082)      6766.1  Rx     18F00100  8  FF 23 FF FF FF FF FF FF 
  1083)      6766.7  Rx     18FEF100  8  FF 0E 23 FF FF FF FF FF 
  1084)      6767.2  Rx     0CF00400  8  FF FF FF 15 23 FF FF FF 
  1085)      6767.8  Rx     0CF00200  8  FF 23 FF FF FF FF FF FF 
  1086)      6768.4  Rx     18FEF200  8  0E 23 0E 23 0E 23 FF FF 
  1087)      6768.9  Rx     18F00100  8  FF 23 FF FF FF FF FF FF 
  1088)      6769.5  Rx     18FEF100  8  FF 15 23 FF FF FF FF FF 
  1089)      6770.1  Rx     0CF00400  8  FF FF FF 1B 23 FF FF FF 
  1090)      6770.7  Rx     0CF00200  8  FF 23 FF FF FF FF FF FF 
  1091)      6771.2  Rx     18FEF200  8  15 23 15 23 15 23 FF FF 
  1092)      6771.8  Rx     18F00100  8  FF 23 FF FF FF FF FF FF 
  1093)      6772.4  Rx     18FEF100  8  FF 1B 23 FF FF FF FF FF 
  1094)      6773.0  Rx     18FEF200  8  1B 23 1B 23 1B 23 FF FF 
  1095)      6773.6  Rx     0CF00200  8  FF 23 FF FF FF FF FF FF 
  1096)      6774.1  Rx     0CF00400  8  FF FF FF 22 23 FF FF FF 
  1097)      6774.7  Rx     18F00100  8  FF 23 FF FF FF FF FF FF 
  1098)      6775.3  Rx     18FEF100  8  FF 22 23 FF FF FF FF FF 
  1099)      6775.9  Rx     0CF00400  8  FF FF FF 28 23 FF FF FF 
  1100)      6776.4  Rx     0CF00200  8  FF 23 FF FF FF FF FF FF 
  1101)      6777.0  Rx     18FEF200  8  22 23 22 23 22 23 FF FF 
  1102)      6777.6  Rx     18F00100  8  FF 23 FF FF FF FF FF FF 
  1103)      6778.2  Rx     18FEF100  8  FF 28 23 FF FF FF FF FF 
  1104)      6778.7  Rx     0CF00400  8  FF FF FF 2E 23 FF FF FF 
  1105)      6779.3  Rx     18FEF200  8  28 23 28 23 28 23 FF FF 
  1106)      6779.9  Rx     0CF00200  8  FF 23 FF FF FF FF FF FF 
  1107)      6780.5  Rx     18F00100  8  FF 23 FF FF FF FF FF FF 
  1108)      6781.0  Rx     18FEF100  8  FF 2E 23 FF FF FF FF FF 
  1109)      6781.6  Rx     0CF00400  8  FF FF FF 33 23 FF FF FF 
  1110)      6782.2  Rx     18FEF200  8  2E 23 2F 23 2F 23 FF FF 
  1111)      6782.7  Rx     0CF00200  8  FF 23 FF FF FF FF FF FF 
  1112)      6783.3  Rx     18F00100  8  FF 23 FF FF FF FF FF FF 
  1113)      6783.9  Rx     18FEF100  8  FF 33 23 FF FF FF FF FF 
  1114)      6784.5  Rx     0CF00400  8  FF FF FF 39 23 FF FF FF 
  1115)      6785.1  Rx     0CF00200  8  FF 23 FF FF FF FF FF FF 
  1116)      6785.6  Rx     18FEF200  8  33 23 33 23 33 23 FF FF 
  1117)      6786.2  Rx     18F00100  8  FF 23 FF FF FF FF FF FF 
  1118)      6786.8  Rx     18FEF100  8  FF 39 23 FF FF FF FF FF 
  1119)      6787.3  Rx     0CF00400  8  FF FF FF 40 23 FF FF FF 
  1120)      6787.9  Rx     0CF00200  8  FF 23 FF FF FF FF FF FF 
  1121)      6788.5  Rx     18F00100  8  FF 23 FF FF FF FF FF FF 
  1122)      6789.1  Rx     18FEF100  8  FF 40 23 FF FF FF FF FF 
  1123)      6789.6  Rx     18FEF200  8  39 23 39 23 39 23 FF FF 
  1124)      6790.2  Rx     0CF00400  8  FF FF FF 46 23 FF FF FF 
  1125)      6790.8  Rx     0CF00200  8  FF 23 FF FF FF FF FF FF 
  1126)      6791.4  Rx     18FEF200  8  40 23 40 23 40 23 FF FF 
  1127)      6791.9  Rx     18F00100  8  FF 23 FF FF FF FF FF FF 
  1128)      6792.5  Rx     18FEF100  8  FF 46 23 FF FF FF FF FF 
  1129)      6793.1  Rx     18FEF200  8  46 23 46 23 46 23 FF FF 
  1130)      6793.6  Rx     0CF00400  8  FF FF FF 4C 23 FF FF FF 
  1131)      6794.2  Rx     0CF00200  8  FF 23 FF FF FF FF FF FF 
  1132)      6794.8  Rx     18F00100  8  FF 23 FF FF FF FF FF FF 
  1133)      6795.4  Rx     18FEF100  8  FF 4C 23 FF FF FF FF FF 
  1134)      6796.0  Rx     0CF00400  8  FF FF FF 53 23 FF FF FF 
  1135)      6796.6  Rx     0CF00200  8  FF 23 FF FF FF FF FF FF 
  1136)      6797.1  Rx     18FEF200  8  4C 23 4D 23 4D 23 FF FF 
  1137)      6797.7  Rx     18F00100  8  FF 23 FF FF FF FF FF FF 
  1138)      6798.3  Rx     18FEF100  8  FF 53 23 FF FF FF FF FF 
  1139)      6798.8  Rx     18FEF200  8  53 23 53 23 53 23 FF FF 
  1140)      6799.4  Rx     0CF00200  8  FF 23 FF FF FF FF FF FF 
  1141)      6800.0  Rx     0CF00400  8  FF FF FF 59 23 FF FF FF 
  1142)      6800.6  Rx     18F00100  8  FF 23 FF FF FF FF FF FF 
  1143)      6801.2  Rx     18FEF100  8  FF 59 23 FF FF FF FF FF 
  1144)      6801.7  Rx     0CF00400  8  FF FF FF 5E 23 FF FF FF 
  1145)      6802.3  Rx     0CF00200  8  FF 23 FF FF FF FF FF FF 
  1146)      6802.9  Rx     18FEF200  8  59 23 59 23 59 23 FF FF 
  1147)      6803.4  Rx     18F00100  8  FF 23 FF FF FF FF FF FF 
  1148)      6804.0  Rx     18FEF100  8  FF 5E 23 FF FF FF FF FF 
  1149)      6804.6  Rx     0CF00400  8  FF FF FF 64 23 FF FF FF 
  1150)      6805.2  Rx     0CF00200  8  FF 23 FF FF FF FF FF FF 
  1151)      6805.7  Rx     18FEF200  8  5E 23 5E 23 5E 23 FF FF 
  1152)      6806.3  Rx     18F00100  8  FF 23 FF FF FF FF FF FF 
  1153)      6806.9  Rx     18FEF100  8  FF 64 23 FF FF FF FF FF 
  1154)      6807.4  Rx     18FEF200  8  64 23 64 23 64 23 FF FF 
  1155)      6808.0  Rx     0CF00200  8  FF 23 FF FF FF FF FF FF 
  1156)      6808.6  Rx     0CF00400  8  FF FF FF 6A 23 FF FF FF 
  1157)      6809.2  Rx     18F00100  8  FF 23 FF FF FF FF FF FF 
  1158)      6809.7  Rx     18FEF100  8  FF 6A 23 FF FF FF FF FF 
  1159)      6810.3  Rx     0CF00400  8  FF FF FF 71 23 FF FF FF 
  1160)      6810.9  Rx     0CF00200  8  FF 23 FF FF FF FF FF FF 
  1161)      6811.4  Rx     18FEF200  8  6A 23 6B 23 6B 23 FF FF 
  1162)      6812.0  Rx     18F00100  8  FF 23 FF FF FF FF FF FF 
  1163)      6812.6  Rx     18FEF100  8  FF 71 23 FF FF FF FF FF 
  1164)      6813.1  Rx     18FEF200  8  71 23 71 23 71 23 FF FF 
  1165)      6813.7  Rx     0CF00200  8  FF 23 FF FF FF FF FF FF 
  1166)      6814.3  Rx     0CF00400  8  FF FF FF 77 23 FF FF FF 
  1167)      6814.9  Rx     18F00100  8  FF 23 FF FF FF FF FF FF 
  1168)      6815.5  Rx     18FEF100  8  FF 77 23 FF FF FF FF FF 
  1169)      6816.0  Rx     0CF00400  8  FF FF FF 7E 23 FF FF FF 
  1170)      6816.6  Rx     18FEF200  8  77 23 77 23 77 23 FF FF 
  1171)      6817.2  Rx     0CF00200  8  FF 23 FF FF FF FF FF FF 
  1172)      6817.8  Rx     18F00100  8  FF 23 FF FF FF FF FF FF 
  1173)      6818.4  Rx     18FEF100  8  FF 7E 23 FF FF FF FF FF 
  1174)      6818.9  Rx     0CF00400  8  FF FF FF 84 23 FF FF FF 
  1175)      6819.5  Rx     18FEF200  8  7E 23 7E 23 7E 23 FF FF 
  1176)      6820.1  Rx     0CF00200  8  FF 23 FF FF FF FF FF FF 
  1177)      6820.7  Rx     18F00100  8  FF 23 FF FF FF FF FF FF 
  1178)      6821.2  Rx     18FEF100  8  FF 84 23 FF FF FF FF FF 
  1179)      6821.8  Rx     0CF00400  8  FF FF FF 88 23 FF FF FF 
  1180)      6822.4  Rx     0CF00200  8  FF 23 FF FF FF FF FF FF 
  1181)      6823.0  Rx     18FEF200  8  84 23 84 23 84 23 FF FF 
  1182)      6823.5  Rx     18F00100  8  FF 23 FF FF FF FF FF FF 
  1183)      6824.1  Rx     18FEF100  8  FF 88 23 FF FF FF FF FF 
  1184)      6824.7  Rx     0CF00400  8  FF FF FF 8F 23 FF FF FF 
  1185)      6825.3  Rx     0CF00200  8  FF 23 FF FF FF FF FF FF 
  1186)      6825.8  Rx     18FEF200  8  88 23 89 23 89 23 FF FF 
  1187)      6826.4  Rx     18F00100  8  FF 23 FF FF FF FF FF FF 
  1188)      6827.0  Rx     18FEF100  8  FF 8F 23 FF FF FF FF FF 
  1189)      6827.6  Rx     0CF00400  8  FF FF FF 95 23 FF FF FF 
  1190)      6828.1  Rx     0CF00200  8  FF 23 FF FF FF FF FF FF 
  1191)      6828.7  Rx     18FEF200  8  8F 23 8F 23 8F 23 FF FF 
  1192)      6829.3  Rx     18F00100  8  FF 23 FF FF FF FF FF FF 
  1193)      6829.9  Rx     18FEF100  8  FF 95 23 FF FF FF FF FF 
  1194)      6830.4  Rx     18FEF200  8  95 23 95 23 95 23 FF FF 
  1195)      6831.0  Rx     0CF00200  8  FF 23 FF FF FF FF FF FF 
  1196)      6831.6  Rx     0CF00400  8  FF FF FF 9C 23 FF FF FF 
  1197)      6832.1  Rx     18F00100  8  FF 23 FF FF FF FF FF FF 
  1198)      6832.7  Rx     18FEF100  8  FF 9C 23 FF FF FF FF FF 
  1199)      6833.3  Rx     0CF00400  8  FF FF FF A2 23 FF FF FF 
  1200)      6833.9  Rx     0CF00200  8  FF 23 FF FF FF FF FF FF 
  1201)      6834.4  Rx     18FEF200  8  9C 23 9C 23 9C 23 FF FF 
  1202)      6835.0  Rx     18F00100  8  FF 23 FF FF FF FF FF FF 
  1203)      6835.6  Rx     18FEF100  8  FF A2 23 FF FF FF FF FF 
  1204)      6836.1  Rx     18FEF200  8  A2 23 A2 23 A2 23 FF FF 
  1205)      6836.7  Rx     0CF00400  8  FF FF FF A8 23 FF FF FF 
  1206)      6837.3  Rx     0CF00200  8  FF 24 FF FF FF FF FF FF 
  1207)      6837.9  Rx     18F00100  8  FF 24 FF FF FF FF FF FF 
  1208)      6838.5  Rx     18FEF100  8  FF A8 23 FF FF FF FF FF 
  1209)      6839.0  Rx     0CF00400  8  FF FF FF AF 23 FF FF FF 
  1210)      6839.6  Rx     0CF00200  8  FF 24 FF FF FF FF FF FF 
  1211)      6840.2  Rx     18F00100  8  FF 24 FF FF FF FF FF FF 
  1212)      6840.8  Rx     18FEF100  8  FF AF 23 FF FF FF FF FF 
  1213)      6841.3  Rx     18FEF200  8  A8 23 A9 23 A9 23 FF FF 
  1214)      6841.9  Rx     18FEF200  8  AF 23 AF 23 AF 23 FF FF 
  1215)      6842.5  Rx     0CF00400  8  FF FF FF B5 23 FF FF FF 
  1216)      6843.1  Rx     0CF00200  8  FF 24 FF FF FF FF FF FF 
  1217)      6843.7  Rx     18F00100  8  FF 24 FF FF FF FF FF FF 
  1218)      6844.2  Rx     18FEF100  8  FF B5 23 FF FF FF FF FF 
  1219)      6844.8  Rx     18FEF200  8  B5 23 B5 23 B5 23 FF FF 
  1220)      6845.4  Rx     0CF00200  8  FF 24 FF FF FF FF FF FF 
  1221)      6845.9  Rx     0CF00400  8  FF FF FF BA 23 FF FF FF 
  1222)      6846.5  Rx     18F00100  8  FF 24 FF FF FF FF FF FF 
  1223)      6847.1  Rx     18FEF100  8  FF BA 23 FF FF FF FF FF 
  1224)      6847.7  Rx     0CF00400  8  FF FF FF C0 23 FF FF FF 
  1225)      6848.3  Rx     0CF00200  8  FF 24 FF FF FF FF FF FF 
  1226)      6848.8  Rx     18F00100  8  FF 24 FF FF FF FF FF FF 
  1227)      6849.4  Rx     18FEF200  8  BA 23 BA 23 BA 23 FF FF 
  1228)      6850.0  Rx     18FEF100  8  FF C0 23 FF FF FF FF FF 
  1229)      6850.5  Rx     0CF00400  8  FF FF FF C6 23 FF FF FF 
  1230)      6851.1  Rx     0CF00200  8  FF 24 FF FF FF FF FF FF 
  1231)      6851.7  Rx     18FEF200  8  C0 23 C0 23 C0 23 FF FF 
  1232)      6852.3  Rx     18F00100  8  FF 24 FF FF FF FF FF FF 
  1233)      6852.8  Rx     18FEF100  8  FF C6 23 FF FF FF FF FF 
  1234)      6853.4  Rx     0CF00400  8  FF FF FF CD 23 FF FF FF 
  1235)      6854.0  Rx     18FEF200  8  C6 23 C7 23 C7 23 FF FF 
  1236)      6854.5  Rx     0CF00200  8  FF 24 FF FF FF FF FF FF 
  1237)      6855.1  Rx     18F00100  8  FF 24 FF FF FF FF FF FF 
  1238)      6855.7  Rx     18FEF100  8  FF CD 23 FF FF FF FF FF 
  1239)      6856.2  Rx     18FEF200  8  CD 23 CD 23 CD 23 FF FF 
  1240)      6856.8  Rx     0CF00200  8  FF 24 FF FF FF FF FF FF 
  1241)      6857.4  Rx     0CF00400  8  FF FF FF D3 23 FF FF FF 
  1242)      6858.0  Rx     18F00100  8  FF 24 FF FF FF FF FF FF 
  1243)      6858.6  Rx     18FEF100  8  FF D3 23 FF FF FF FF FF 
  1244)      6859.1  Rx     0CF00400  8  FF FF FF DA 23 FF FF FF 
  1245)      6859.7  Rx     0CF00200  8  FF 24 FF FF FF FF FF FF 
  1246)      6860.3  Rx     18FEF200  8  D3 23 D3 23 D3 23 FF FF 
  1247)      6860.8  Rx     18F00100  8  FF 24 FF FF FF FF FF FF 
  1248)      6861.4  Rx     18FEF100  8  FF DA 23 FF FF FF FF FF 
  1249)      6862.0  Rx     0CF00400  8  FF FF FF E0 23 FF FF FF 
  1250)      6862.6  Rx     0CF00200  8  FF 24 FF FF FF FF FF FF 
  1251)      6863.2  Rx     18FEF200  8  DA 23 DA 23 DA 23 FF FF 
  1252)      6863.7  Rx     18F00100  8  FF 24 FF FF FF FF FF FF 
  1253)      6864.3  Rx     18FEF100  8  FF E0 23 FF FF FF FF FF 
  1254)      6864.9  Rx     0CF00400  8  FF FF FF E4 23 FF FF FF 
  1255)      6865.5  Rx     0CF00200  8  FF 24 FF FF FF FF FF FF 
  1256)      6866.1  Rx     18FEF200  8  E0 23 E0 23 E0 23 FF FF 
  1257)      6866.7  Rx     18F00100  8  FF 24 FF FF FF FF FF FF 
  1258)      6867.2  Rx     18FEF100  8  FF E4 23 FF FF FF FF FF 
  1259)      6867.8  Rx     18FEF200  8  E4 23 E5 23 E5 23 FF FF 
  1260)      6868.4  Rx     0CF00200  8  FF 24 FF FF FF FF FF FF 
  1261)      6869.0  Rx     0CF00400  8  FF FF FF EB 23 FF FF FF 
  1262)      6869.5  Rx     18F00100  8  FF 24 FF FF FF FF FF FF 
  1263)      6870.1  Rx     18FEF100  8  FF EB 23 FF FF FF FF FF 
  1264)      6870.7  Rx     18FEF200  8  EB 23 EB 23 EB 23 FF FF 
  1265)      6871.3  Rx     0CF00400  8  FF FF FF F1 23 FF FF FF 
  1266)      6871.8  Rx     0CF00200  8  FF 24 FF FF FF FF FF FF 
  1267)      6872.4  Rx     18F00100  8  FF 24 FF FF FF FF FF FF 
  1268)      6873.0  Rx     18FEF100  8  FF F1 23 FF FF FF FF FF 
  1269)      6873.5  Rx     18FEF200  8  F1 23 F1 23 F1 23 FF FF 
  1270)      6874.1  Rx     0CF00200  8  FF 24 FF FF FF FF FF FF 
  1271)      6874.7  Rx     0CF00400  8  FF FF FF F8 23 FF FF FF 
  1272)      6875.3  Rx     18F00100  8  FF 24 FF FF FF FF FF FF 
  1273)      6875.9  Rx     18FEF100  8  FF F8 23 FF FF FF FF FF 
  1274)      6876.4  Rx     18FEF200  8  F8 23 F8 23 F8 23 FF FF 
  1275)      6877.0  Rx     0CF00400  8  FF FF FF FE 23 FF FF FF 
  1276)      6877.6  Rx     0CF00200  8  FF 24 FF FF FF FF FF FF 
  1277)      6878.2  Rx     18F00100  8  FF 24 FF FF FF FF FF FF 
  1278)      6878.8  Rx     18FEF100  8  FF FE 23 FF FF FF FF FF 
  1279)      6879.3  Rx     18FEF200  8  FE 23 FE 23 FE 23 FF FF 
  1280)      6879.9  Rx     0CF00200  8  FF 24 FF FF FF FF FF FF 
  1281)      6880.5  Rx     0CF00400  8  FF FF FF 05 24 FF FF FF 
  1282)      6881.1  Rx     18F00100  8  FF 24 FF FF FF FF FF FF 
  1283)      6881.6  Rx     18FEF100  8  FF 05 24 FF FF FF FF FF 
  1284)      6882.2  Rx     0CF00400  8  FF FF FF 0B 24 FF FF FF 
  1285)      6882.8  Rx     0CF00200  8  FF 24 FF FF FF FF FF FF 
  1286)      6883.4  Rx     18FEF200  8  05 24 05 24 05 24 FF FF 
  1287)      6883.9  Rx     18F00100  8  FF 24 FF FF FF FF FF FF 
  1288)      6884.5  Rx     18FEF100  8  FF 0B 24 FF FF FF FF FF 
  1289)      6885.1  Rx     0CF00400  8  FF FF FF 11 24 FF FF FF 
  1290)      6885.6  Rx     18FEF200  8  0B 24 0B 24 0B 24 FF FF 
  1291)      6886.2  Rx     0CF00200  8  FF 24 FF FF FF FF FF FF 
  1292)      6886.8  Rx     18F00100  8  FF 24 FF FF FF FF FF FF 
  1293)      6887.4  Rx     18FEF100  8  FF 11 24 FF FF FF FF FF 
  1294)      6888.0  Rx     0CF00400  8  FF FF FF 16 24 FF FF FF 
  1295)      6888.5  Rx     18FEF200  8  11 24 12 24 12 24 FF FF 
  1296)      6889.1  Rx     0CF00200  8  FF 24 FF FF FF FF FF FF 
  1297)      6889.7  Rx     18F00100  8  FF 24 FF FF FF FF FF FF 
  1298)      6890.3  Rx     18FEF100  8  FF 16 24 FF FF FF FF FF 
  1299)      6890.8  Rx     0CF00400  8  FF FF FF 1C 24 FF FF FF 
  1300)      6891.4  Rx     18FEF200  8  16 24 16 24 16 24 FF FF 
  1301)      6892.0  Rx     0CF00200  8  FF 24 FF FF FF FF FF FF 
  1302)      6892.5  Rx     18F00100  8  FF 24 FF FF FF FF FF FF 
  1303)      6893.1  Rx     18FEF100  8  FF 1C 24 FF FF FF FF FF 
  1304)      6893.7  Rx     18FEF200  8  1C 24 1C 24 1C 24 FF FF 
  1305)      6894.3  Rx     0CF00200  8  FF 24 FF FF FF FF FF FF 
  1306)      6894.9  Rx     0CF00400  8  FF FF FF 23 24 FF FF FF 
  1307)      6895.4  Rx     18F00100  8  FF 24 FF FF FF FF FF FF 
  1308)      6896.0  Rx     18FEF100  8  FF 23 24 FF FF FF FF FF 
  1309)      6896.6  Rx     0CF00400  8  FF FF FF 29 24 FF FF FF 
  1310)      6897.2  Rx     18FEF200  8  23 24 23 24 23 24 FF FF 
  1311)      6897.7  Rx     0CF00200  8  FF 24 FF FF FF FF FF FF 
  1312)      6898.3  Rx     18F00100  8  FF 24 FF FF FF FF FF FF 
  1313)      6898.9  Rx     18FEF100  8  FF 29 24 FF FF FF FF FF 
  1314)      6899.4  Rx     18FEF200  8  29 24 29 24 29 24 FF FF 
  1315)      6900.0  Rx     0CF00200  8  FF 24 FF FF FF FF FF FF 
  1316)      6900.6  Rx     0CF00400  8  FF FF FF 2F 24 FF FF FF 
  1317)      6901.2  Rx     18F00100  8  FF 24 FF FF FF FF FF FF 
  1318)      6901.7  Rx     18FEF100  8  FF 2F 24 FF FF FF FF FF 
  1319)      6902.3  Rx     0CF00400  8  FF FF FF 36 24 FF FF FF 
  1320)      6902.9  Rx     0CF00200  8  FF 24 FF FF FF FF FF FF 
  1321)      6903.5  Rx     18FEF200  8  2F 24 30 24 30 24 FF FF 
  1322)      6904.0  Rx     18F00100  8  FF 24 FF FF FF FF FF FF 
  1323)      6904.6  Rx     18FEF100  8  FF 36 24 FF FF FF FF FF 
  1324)      6905.2  Rx     0CF00400  8  FF FF FF 3C 24 FF FF FF 
  1325)      6905.8  Rx     0CF00200  8  FF 24 FF FF FF FF FF FF 
  1326)      6906.3  Rx     18F00100  8  FF 24 FF FF FF FF FF FF 
  1327)      6906.9  Rx     18FEF100  8  FF 3C 24 FF FF FF FF FF 
  1328)      6907.5  Rx     18FEF200  8  36 24 36 24 36 24 FF FF 
  1329)      6908.0  Rx     0CF00400  8  FF FF FF 41 24 FF FF FF 
  1330)      6908.6  Rx     0CF00200  8  FF 24 FF FF FF FF FF FF 
  1331)      6909.2  Rx     18F00100  8  FF 24 FF FF FF FF FF FF 
  1332)      6909.8  Rx     18FEF200  8  3C 24 3C 24 3C 24 FF FF 
  1333)      6910.3  Rx     18FEF100  8  FF 41 24 FF FF FF FF FF 
  1334)      6910.9  Rx     0CF00400  8  FF FF FF 47 24 FF FF FF 
  1335)      6911.5  Rx     0CF00200  8  FF 24 FF FF FF FF FF FF 
  1336)      6912.1  Rx     18FEF200  8  41 24 41 24 41 24 FF FF 
  1337)      6912.6  Rx     18F00100  8  FF 24 FF FF FF FF FF FF 
  1338)      6913.2  Rx     18FEF100  8  FF 47 24 FF FF FF FF FF 
  1339)      6913.8  Rx     18FEF200  8  47 24 47 24 47 24 FF FF 
  1340)      6914.4  Rx     0CF00200  8  FF 24 FF FF FF FF FF FF 
  1341)      6914.9  Rx     0CF00400  8  FF FF FF 4D 24 FF FF FF 
  1342)      6915.5  Rx     18F00100  8  FF 24 FF FF FF FF FF FF 
  1343)      6916.1  Rx     18FEF100  8  FF 4D 24 FF FF FF FF FF 
  1344)      6916.7  Rx     18FEF200  8  4D 24 4E 24 4E 24 FF FF 
  1345)      6917.2  Rx     0CF00200  8  FF 24 FF FF FF FF FF FF 
  1346)      6917.8  Rx     0CF00400  8  FF FF FF 54 24 FF FF FF 
  1347)      6918.4  Rx     18F00100  8  FF 24 FF FF FF FF FF FF 
  1348)      6919.0  Rx     18FEF100  8  FF 54 24 FF FF FF FF FF 
  1349)      6919.5  Rx     18FEF200  8  54 24 54 24 54 24 FF FF 
  1350)      6920.1  Rx     0CF00400  8  FF FF FF 5A 24 FF FF FF 
  1351)      6920.7  Rx     0CF00200  8  FF 24 FF FF FF FF FF FF 
  1352)      6921.2  Rx     18F00100  8  FF 24 FF FF FF FF FF FF 
  1353)      6921.8  Rx     18FEF100  8  FF 5A 24 FF FF FF FF FF 
  1354)      6922.4  Rx     18FEF200  8  5A 24 5A 24 5A 24 FF FF 
  1355)      6922.9  Rx     0CF00200  8  FF 24 FF FF FF FF FF FF 
  1356)      6923.5  Rx     0CF00400  8  FF FF FF 61 24 FF FF FF 
  1357)      6924.1  Rx     18F00100  8  FF 24 FF FF FF FF FF FF 
  1358)      6924.7  Rx     18FEF100  8  FF 61 24 FF FF FF FF FF 
  1359)      6925.2  Rx     0CF00400  8  FF FF FF 67 24 FF FF FF 
  1360)      6925.8  Rx     0CF00200  8  FF 24 FF FF FF FF FF FF 
  1361)      6926.4  Rx     18FEF200  8  61 24 61 24 61 24 FF FF 
  1362)      6926.9  Rx     18F00100  8  FF 24 FF FF FF FF FF FF 
  1363)      6927.5  Rx     18FEF100  8  FF 67 24 FF FF FF FF FF 
  1364)      6928.1  Rx     0CF00400  8  FF FF FF 6B 24 FF FF FF 
  1365)      6928.7  Rx     0CF00200  8  FF 24 FF FF FF FF FF FF 
  1366)      6929.2  Rx     18FEF200  8  67 24 67 24 67 24 FF FF 
  1367)      6929.8  Rx     18F00100  8  FF 24 FF FF FF FF FF FF 
  1368)      6930.4  Rx     18FEF100  8  FF 6B 24 FF FF FF FF FF 
  1369)      6930.9  Rx     0CF00400  8  FF FF FF 72 24 FF FF FF 
  1370)      6931.5  Rx     0CF00200  8  FF 24 FF FF FF FF FF FF 
  1371)      6932.1  Rx     18FEF200  8  6B 24 6C 24 6C 24 FF FF 
  1372)      6932.7  Rx     18F00100  8  FF 24 FF FF FF FF FF FF 
  1373)      6933.3  Rx     18FEF100  8  FF 72 24 FF FF FF FF FF 
  1374)      6933.8  Rx     18FEF200  8  72 24 72 24 72 24 FF FF 
  1375)      6934.4  Rx     0CF00400  8  FF FF FF 78 24 FF FF FF 
  1376)      6935.0  Rx     0CF00200  8  FF 24 FF FF FF FF FF FF 
  1377)      6935.6  Rx     18F00100  8  FF 24 FF FF FF FF FF FF 
  1378)      6936.1  Rx     18FEF100  8  FF 78 24 FF FF FF FF FF 
  1379)      6936.7  Rx     18FEF200  8  78 24 78 24 78 24 FF FF 
  1380)      6937.3  Rx     0CF00200  8  FF 24 FF FF FF FF FF FF 
  1381)      6937.8  Rx     0CF00400  8  FF FF FF 7F 24 FF FF FF 
  1382)      6938.4  Rx     18F00100  8  FF 24 FF FF FF FF FF FF 
  1383)      6939.0  Rx     18FEF100  8  FF 7F 24 FF FF FF FF FF 
  1384)      6939.6  Rx     18FEF200  8  7F 24 7F 24 7F 24 FF FF 
  1385)      6940.1  Rx     0CF00200  8  FF 24 FF FF FF FF FF FF 
  1386)      6940.7  Rx     0CF00400  8  FF FF FF 85 24 FF FF FF 
  1387)      6941.3  Rx     18F00100  8  FF 24 FF FF FF FF FF FF 
  1388)      6941.9  Rx     18FEF100  8  FF 85 24 FF FF FF FF FF 
  1389)      6942.5  Rx     0CF00400  8  FF FF FF 8C 24 FF FF FF 
  1390)      6943.0  Rx     0CF00200  8  FF 24 FF FF FF FF FF FF 
  1391)      6943.6  Rx     18FEF200  8  85 24 85 24 85 24 FF FF 
  1392)      6944.2  Rx     18F00100  8  FF 24 FF FF FF FF FF FF 
  1393)      6944.7  Rx     18FEF100  8  FF 8C 24 FF FF FF FF FF 
  1394)      6945.3  Rx     18FEF200  8  8C 24 8C 24 8C 24 FF FF 
  1395)      6945.9  Rx     0CF00400  8  FF FF FF 92 24 FF FF FF 
  1396)      6946.4  Rx     0CF00200  8  FF 24 FF FF FF FF FF FF 
  1397)      6947.0  Rx     18F00100  8  FF 24 FF FF FF FF FF FF 
  1398)      6947.6  Rx     18FEF100  8  FF 92 24 FF FF FF FF FF 
  1399)      6948.1  Rx     18FEF200  8  92 24 92 24 92 24 FF FF 
  1400)      6948.7  Rx     0CF00400  8  FF FF FF 96 24 FF FF FF 
  1401)      6949.3  Rx     0CF00200  8  FF 24 FF FF FF FF FF FF 
  1402)      6949.9  Rx     18F00100  8  FF 24 FF FF FF FF FF FF 
  1403)      6950.4  Rx     18FEF100  8  FF 96 24 FF FF FF FF FF 
  1404)      6951.0  Rx     0CF00400  8  FF FF FF 9D 24 FF FF FF 
  1405)      6951.6  Rx     0CF00200  8  FF 24 FF FF FF FF FF FF 
  1406)      6952.2  Rx     18FEF200  8  96 24 96 24 96 24 FF FF 
  1407)      6952.8  Rx     18F00100  8  FF 24 FF FF FF FF FF FF 
  1408)      6953.3  Rx     18FEF100  8  FF 9D 24 FF FF FF FF FF 
  1409)      6953.9  Rx     18FEF200  8  9D 24 9D 24 9D 24 FF FF 
  1410)      6954.5  Rx     0CF00200  8  FF 24 FF FF FF FF FF FF 
  1411)      6955.1  Rx     0CF00400  8  FF FF FF A3 24 FF FF FF 
  1412)      6955.6  Rx     18F00100  8  FF 24 FF FF FF FF FF FF 
  1413)      6956.2  Rx     18FEF100  8  FF A3 24 FF FF FF FF FF 
  1414)      6956.8  Rx     0CF00400  8  FF FF FF AA 24 FF FF FF 
  1415)      6957.3  Rx     18FEF200  8  A3 24 A3 24 A3 24 FF FF 
  1416)      6957.9  Rx     0CF00200  8  FF 25 FF FF FF FF FF FF 
  1417)      6958.5  Rx     18F00100  8  FF 25 FF FF FF FF FF FF 
  1418)      6959.1  Rx     18FEF100  8  FF AA 24 FF FF FF FF FF 
  1419)      6959.7  Rx     0CF00400  8  FF FF FF B0 24 FF FF FF 
  1420)      6960.2  Rx     0CF00200  8  FF 25 FF FF FF FF FF FF 
  1421)      6960.8  Rx     18FEF200  8  AA 24 AA 24 AA 24 FF FF 
  1422)      6961.4  Rx     18F00100  8  FF 25 FF FF FF FF FF FF 
  1423)      6961.9  Rx     18FEF100  8  FF B0 24 FF FF FF FF FF 
  1424)      6962.5  Rx     18FEF200  8  B0 24 B0 24 B0 24 FF FF 
  1425)      6963.1  Rx     0CF00400  8  FF FF FF B6 24 FF FF FF 
  1426)      6963.7  Rx     0CF00200  8  FF 25 FF FF FF FF FF FF 
  1427)      6964.2  Rx     18F00100  8  FF 25 FF FF FF FF FF FF 
  1428)      6964.8  Rx     18FEF100  8  FF B6 24 FF FF FF FF FF 
  1429)      6965.4  Rx     0CF00400  8  FF FF FF BD 24 FF FF FF 
  1430)      6966.0  Rx     0CF00200  8  FF 25 FF FF FF FF FF FF 
  1431)      6966.5  Rx     18FEF200  8  B6 24 B7 24 B7 24 FF FF 
  1432)      6967.1  Rx     18F00100  8  FF 25 FF FF FF FF FF FF 
  1433)      6967.7  Rx     18FEF100  8  FF BD 24 FF FF FF FF FF 
  1434)      6968.2  Rx     18FEF200  8  BD 24 BD 24 BD 24 FF FF 
  1435)      6968.8  Rx     0CF00400  8  FF FF FF C1 24 FF FF FF 
  1436)      6969.4  Rx     0CF00200  8  FF 25 FF FF FF FF FF FF 
  1437)      6970.0  Rx     18F00100  8  FF 25 FF FF FF FF FF FF 
  1438)      6970.5  Rx     18FEF100  8  FF C1 24 FF FF FF FF FF 
  1439)      6971.1  Rx     18FEF200  8  C1 24 C1 24 C1 24 FF FF 
  1440)      6971.7  Rx     0CF00400  8  FF FF FF C8 24 FF FF FF 
  1441)      6972.3  Rx     0CF00200  8  FF 25 FF FF FF FF FF FF 
  1442)      6972.9  Rx     18F00100  8  FF 25 FF FF FF FF FF FF 
  1443)      6973.4  Rx     18FEF100  8  FF C7 24 FF FF FF FF FF 
  1444)      6974.0  Rx     18FEF200  8  C7 24 C8 24 C8 24 FF FF 
  1445)      6974.6  Rx     0CF00200  8  FF 25 FF FF FF FF FF FF 
  1446)      6975.1  Rx     0CF00400  8  FF FF FF CE 24 FF FF FF 
  1447)      6975.7  Rx     18F00100  8  FF 25 FF FF FF FF FF FF 
  1448)      6976.3  Rx     18FEF100  8  FF CE 24 FF FF FF FF FF 
  1449)      6976.9  Rx     18FEF200  8  CE 24 CE 24 CE 24 FF FF 
  1450)      6977.5  Rx     0CF00200  8  FF 25 FF FF FF FF FF FF 
  1451)      6978.1  Rx     0CF00400  8  FF FF FF D4 24 FF FF FF 
  1452)      6978.6  Rx     18F00100  8  FF 25 FF FF FF FF FF FF 
  1453)      6979.2  Rx     18FEF100  8  FF D4 24 FF FF FF FF FF 
  1454)      6979.8  Rx     18FEF200  8  D4 24 D4 24 D4 24 FF FF 
  1455)      6980.3  Rx     0CF00200  8  FF 25 FF FF FF FF FF FF 
  1456)      6980.9  Rx     0CF00400  8  FF FF FF DB 24 FF FF FF 
  1457)      6981.5  Rx     18F00100  8  FF 25 FF FF FF FF FF FF 
  1458)      6982.1  Rx     18FEF100  8  FF DB 24 FF FF FF FF FF 
  1459)      6982.7  Rx     0CF00400  8  FF FF FF E1 24 FF FF FF 
  1460)      6983.2  Rx     0CF00200  8  FF 25 FF FF FF FF FF FF 
  1461)      6983.8  Rx     18F00100  8  FF 25 FF FF FF FF FF FF 
  1462)      6984.4  Rx     18FEF100  8  FF E1 24 FF FF FF FF FF 
  1463)      6985.0  Rx     18FEF200  8  DB 24 DB 24 DB 24 FF FF 
  1464)      6985.5  Rx     0CF00400  8  FF FF FF E8 24 FF FF FF 
  1465)      6986.1  Rx     18FEF200  8  E1 24 E1 24 E1 24 FF FF 
  1466)      6986.7  Rx     0CF00200  8  FF 25 FF FF FF FF FF FF 
  1467)      6987.3  Rx     18F00100  8  FF 25 FF FF FF FF FF FF 
  1468)      6987.8  Rx     18FEF100  8  FF E8 24 FF FF FF FF FF 
  1469)      6988.4  Rx     0CF00400  8  FF FF FF EC 24 FF FF FF 
  1470)      6989.0  Rx     0CF00200  8  FF 25 FF FF FF FF FF FF 
  1471)      6989.6  Rx     18F00100  8  FF 25 FF FF FF FF FF FF 
  1472)      6990.1  Rx     18FEF200  8  E8 24 E8 24 E8 24 FF FF 
  1473)      6990.7  Rx     18FEF100  8  FF EC 24 FF FF FF FF FF 
  1474)      6991.3  Rx     0CF00400  8  FF FF FF F2 24 FF FF FF 
  1475)      6991.9  Rx     0CF00200  8  FF 25 FF FF FF FF FF FF 
  1476)      6992.4  Rx     18F00100  8  FF 25 FF FF FF FF FF FF 
  1477)      6993.0  Rx     18FEF200  8  EC 24 EC 24 EC 24 FF FF 
  1478)      6993.6  Rx     18FEF100  8  FF F2 24 FF FF FF FF FF 
  1479)      6994.1  Rx     18FEF200  8  F2 24 F2 24 F2 24 FF FF 
  1480)      6994.7  Rx     0CF00200  8  FF 25 FF FF FF FF FF FF 
  1481)      6995.3  Rx     0CF00400  8  FF FF FF F9 24 FF FF FF 
  1482)      6995.9  Rx     18F00100  8  FF 25 FF FF FF FF FF FF 
  1483)      6996.4  Rx     18FEF100  8  FF F9 24 FF FF FF FF FF 
  1484)      6997.0  Rx     18FEF200  8  F9 24 F9 24 F9 24 FF FF 
  1485)      6997.6  Rx     0CF00200  8  FF 25 FF FF FF FF FF FF 
  1486)      6998.2  Rx     0CF00400  8  FF FF FF FF 24 FF FF FF 
  1487)      6998.7  Rx     18F00100  8  FF 25 FF FF FF FF FF FF 
  1488)      6999.3  Rx     18FEF100  8  FF FF 24 FF FF FF FF FF 
  1489)      6999.9  Rx     18FEF200  8  FF 24 FF 24 FF 24 FF FF 
  1490)      7000.5  Rx     0CF00400  8  FF FF FF 06 25 FF FF FF 
  1491)      7001.1  Rx     0CF00200  8  FF 25 FF FF FF FF FF FF 
  1492)      7001.6  Rx     18F00100  8  FF 25 FF FF FF FF FF FF 
  1493)      7002.2  Rx     18FEF100  8  FF 06 25 FF FF FF FF FF 
  1494)      7002.8  Rx     0CF00400  8  FF FF FF 0C 25 FF FF FF 
  1495)      7003.4  Rx     0CF00200  8  FF 25 FF FF FF FF FF FF 
  1496)      7004.0  Rx     18F00100  8  FF 25 FF FF FF FF FF FF 
  1497)      7004.5  Rx     18FEF200  8  06 25 06 25 06 25 FF FF 
  1498)      7005.1  Rx     18FEF100  8  FF 0C 25 FF FF FF FF FF 
  1499)      7005.7  Rx     0CF00400  8  FF FF FF 12 25 FF FF FF 
  1500)      7006.3  Rx     0CF00200  8  FF 25 FF FF FF FF FF FF 
  1501)      7006.9  Rx     18FEF200  8  0C 25 0C 25 0C 25 FF FF 
  1502)      7007.4  Rx     18F00100  8  FF 25 FF FF FF FF FF FF 
  1503)      7008.0  Rx     18FEF100  8  FF 12 25 FF FF FF FF FF 
  1504)      7008.6  Rx     18FEF200  8  12 25 13 25 13 25 FF FF 
  1505)      7009.1  Rx     0CF00200  8  FF 25 FF FF FF FF FF FF 
  1506)      7009.7  Rx     0CF00400  8  FF FF FF 19 25 FF FF FF 
  1507)      7010.3  Rx     18F00100  8  FF 25 FF FF FF FF FF FF 
