;$FILEVERSION=1.1
;$STARTTIME=46279.6433748727
;
;   Start time: 14-09-2026 15:26:27.589.0
;   Generated by PCAN-View v6.0.1.1047
;
;   Message Number
;   |         Time Offset (ms)
;   |         |        Type
;   |         |        |        ID (hex)
;   |         |        |        |     Data Length
;   |         |        |        |     |   Data Bytes (hex) ...
;   |         |        |        |     |   |
;---+--   ----+----  --+--  ----+---  +  -+ -- -- -- -- -- -- --
     1)     30771.7  Rx     18FEA600  8  1D CD 33 D1 FF FF FF FF 
     2)     30772.0  Rx     18FEA600  8  1D CD 33 D1 FF FF FF FF 
     3)     30772.3  Rx     18FEA600  8  1D CD 33 D1 FF FF FF FF 
     4)     30772.6  Rx     18FEA600  8  1D CD 33 D1 FF FF FF FF 
     5)     30772.9  Rx     18FEA600  8  1D CD 33 D1 FF FF FF FF 
     6)     30773.2  Rx     18FEA600  8  1D CD 33 D1 FF FF FF FF 
     7)     30773.5  Rx     18FEA600  8  1D CD 33 D1 FF FF FF FF 
     8)     30773.9  Rx     18FEA600  8  1D CD 33 D1 FF FF FF FF 
     9)     30774.2  Rx     18FEA600  8  1D CD 33 D1 FF FF FF FF 
    10)     30774.5  Rx     18FEA600  8  1D CD 33 D1 FF FF FF FF 
    11)     30774.8  Rx     18FEA600  8  1D CD 33 D1 FF FF FF FF 
    12)     30775.1  Rx     18FEA600  8  1D CD 33 D1 FF FF FF FF 
    13)     30775.5  Rx     18FEA600  8  1D CD 33 D1 FF FF FF FF 
    14)     30775.8  Rx     18FEA600  8  1D CD 33 D1 FF FF FF FF 
    15)     30776.1  Rx     18FEA600  8  1D CD 33 D1 FF FF FF FF 
    16)     30776.4  Rx     18FEA600  8  1D CD 33 D1 FF FF FF FF 
    17)     30776.7  Rx     18FEA600  8  1D CD 33 D1 FF FF FF FF 
    18)     30777.0  Rx     18FEA600  8  1D CD 33 D1 FF FF FF FF 
    19)     30777.3  Rx     18FEA600  8  1D CD 33 D1 FF FF FF FF 
    20)     30777.7  Rx     0CF00200  8  FF CD 66 FF FF FF FF FF 
    21)     30778.0  Rx     0CF00200  8  FF CD 66 FF FF FF FF FF 
    22)     30778.3  Rx     0CF00200  8  FF CD 66 FF FF FF FF FF 
    23)     30778.6  Rx     0CF00200  8  FF CD 66 FF FF FF FF FF 
    24)     30778.9  Rx     0CF00200  8  FF CD 66 FF FF FF FF FF 
    25)     30779.3  Rx     0CF00200  8  FF CD 66 FF FF FF FF FF 
    26)     30779.5  Rx     0CF00200  8  FF CD 66 FF FF FF FF FF 
    27)     30779.9  Rx     0CF00200  8  FF CD 66 FF FF FF FF FF 
    28)     30780.2  Rx     0CF00200  8  FF CD 66 FF FF FF FF FF 
    29)     30780.5  Rx     0CF00200  8  FF CD 66 FF FF FF FF FF 
    30)     30780.8  Rx     18FEF100  8  FF A5 CD FF FF FF FF FF 
    31)     30781.1  Rx     0CF00503  8  FF FF FF CD FF FF FF FF 
    32)     30781.5  Rx     0CF00503  8  FF FF FF CD FF FF FF FF 
    33)     30781.8  Rx     0CF00503  8  FF FF FF CD FF FF FF FF 
    34)     30782.1  Rx     0CF00503  8  FF FF FF CD FF FF FF FF 
    35)     30782.4  Rx     0CF00503  8  FF FF FF CD FF FF FF FF 
    36)     30782.7  Rx     0CF00503  8  FF FF FF CD FF FF FF FF 
    37)     30783.0  Rx     0CF00503  8  FF FF FF CD FF FF FF FF 
    38)     30783.3  Rx     0CF00503  8  FF FF FF CD FF FF FF FF 
    39)     30783.7  Rx     18F0010B  8  FF CD FF FF FF FF FF FF 
    40)     30784.0  Rx     0CF00000  8  FF 66 FF FF FF FF FF FF 
    41)     30784.3  Rx     0CF00000  8  FF 66 FF FF FF FF FF FF 
    42)     30784.6  Rx     0CF00000  8  FF 66 FF FF FF FF FF FF 
    43)     30785.0  Rx     0CF00000  8  FF 66 FF FF FF FF FF FF 
    44)     30785.3  Rx     0CF00000  8  FF 66 FF FF FF FF FF FF 
    45)     30785.6  Rx     0CF00000  8  FF 66 FF FF FF FF FF FF 
    46)     30785.9  Rx     0CF00000  8  FF 66 FF FF FF FF FF FF 
    47)     30786.2  Rx     0CF00000  8  FF 66 FF FF FF FF FF FF 
    48)     30786.5  Rx     0CF00000  8  FF 66 FF FF FF FF FF FF 
    49)     30786.8  Rx     18FDB300  8  A5 CD A5 CD FF FF FF FF 
    50)     30787.2  Rx     18FDB300  8  A5 CD A5 CD FF FF FF FF 
    51)     30787.5  Rx     18FDB300  8  A5 CD A5 CD FF FF FF FF 
    52)     30787.8  Rx     18FDB300  8  A5 CD A5 CD FF FF FF FF 
    53)     30788.1  Rx     18FDB300  8  A5 CD A5 CD FF FF FF FF 
    54)     30788.4  Rx     18FDB300  8  A5 CD A5 CD FF FF FF FF 
    55)     30788.7  Rx     18FDB300  8  A5 CD A5 CD FF FF FF FF 
    56)     30789.1  Rx     18FDB300  8  A5 CD A5 CD FF FF FF FF 
    57)     30789.4  Rx     18FDB300  8  A5 CD A5 CD FF FF FF FF 
    58)     30789.7  Rx     18FEBD00  8  CD FF A4 CD FF FF FF FF 
    59)     30790.0  Rx     18FEBD00  8  CD FF A4 CD FF FF FF FF 
    60)     30790.3  Rx     18FEBD00  8  CD FF A4 CD FF FF FF FF 
    61)     30790.6  Rx     18FEBD00  8  CD FF A4 CD FF FF FF FF 
    62)     30790.9  Rx     18FEBD00  8  CD FF A4 CD FF FF FF FF 
    63)     30791.3  Rx     18FEBD00  8  CD FF A4 CD FF FF FF FF 
    64)     30791.6  Rx     18FEBD00  8  CD FF A4 CD FF FF FF FF 
    65)     30791.9  Rx     18FEBD00  8  CD FF A4 CD FF FF FF FF 
    66)     30792.2  Rx     18FEBD00  8  CD FF A4 CD FF FF FF FF 
    67)     30792.5  Rx     18FEBD00  8  CD FF A4 CD FF FF FF FF 
    68)     30792.9  Rx     18FEFF00  8  FE FF FF FF FF FF FF FF 
    69)     30793.2  Rx     18FEF200  8  A4 CD A5 CD A5 CD FF FF 
    70)     30793.5  Rx     18FEF200  8  A4 CD A5 CD A5 CD FF FF 
    71)     30793.8  Rx     18FEF200  8  A4 CD A5 CD A5 CD FF FF 
    72)     30794.1  Rx     18FEF200  8  A4 CD A5 CD A5 CD FF FF 
    73)     30794.4  Rx     18FEF200  8  A4 CD A5 CD A5 CD FF FF 
    74)     30794.7  Rx     18FEF200  8  A4 CD A5 CD A5 CD FF FF 
    75)     30795.0  Rx     18FEF200  8  A4 CD A5 CD A5 CD FF FF 
    76)     30795.3  Rx     18FEF200  8  A4 CD A5 CD A5 CD FF FF 
    77)     30795.6  Rx     0CF00400  8  FC CD CD 25 CE FF FF CD 
    78)     30795.9  Rx     0CF00400  8  FC CD CD 25 CE FF FF CD 
    79)     30796.2  Rx     0CF00400  8  FC CD CD 25 CE FF FF CD 
    80)     30796.5  Rx     0CF00400  8  FC CD CD 25 CE FF FF CD 
    81)     30796.8  Rx     0CF00400  8  FC CD CD 25 CE FF FF CD 
    82)     30797.1  Rx     0CF00400  8  FC CD CD 25 CE FF FF CD 
    83)     30797.4  Rx     0CF00400  8  FC CD CD 25 CE FF FF CD 
    84)     30797.7  Rx     18FEEE00  8  CD 25 CE FF FF FF FF FF 
    85)     30798.0  Rx     18FEEE00  8  CD 25 CE FF FF FF FF FF 
    86)     30798.4  Rx     18FEEE00  8  CD 25 CE FF FF FF FF FF 
    87)     30798.7  Rx     18FEEE00  8  CD 25 CE FF FF FF FF FF 
    88)     30799.0  Rx     18FEEE00  8  CD 25 CE FF FF FF FF FF 
    89)     30799.3  Rx     18FEEE00  8  CD 25 CE FF FF FF FF FF 
    90)     30799.6  Rx     18FEEE00  8  CD 25 CE FF FF FF FF FF 
    91)     30799.9  Rx     18FEEE00  8  CD 25 CE FF FF FF FF FF 
    92)     30800.2  Rx     18FEEE00  8  CD 25 CE FF FF FF FF FF 
    93)     30800.5  Rx     18FEEE00  8  CD 25 CE FF FF FF FF FF 
    94)     30800.8  Rx     0CF00900  8  21 CE FF 0C CE 28 CE CD 
    95)     30801.1  Rx     0CF00503  8  FF FF FF CD FF FF FF FF 
    96)     30801.5  Rx     0CF00503  8  FF FF FF CD FF FF FF FF 
    97)     30801.8  Rx     0CF00503  8  FF FF FF CD FF FF FF FF 
    98)     30802.1  Rx     0CF00503  8  FF FF FF CD FF FF FF FF 
    99)     30802.4  Rx     0CF00503  8  FF FF FF CD FF FF FF FF 
   100)     30802.8  Rx     0CF00503  8  FF FF FF CD FF FF FF FF 
   101)     30803.1  Rx     0CF00503  8  FF FF FF CD FF FF FF FF 
   102)     30803.4  Rx     0CF00503  8  FF FF FF CD FF FF FF FF 
   103)     30803.7  Rx     18FEFA0B  8  CD FF FF FF FF FF FF FF 
   104)     30804.0  Rx     0CF00000  8  FF 67 FF FF FF FF FF FF 
   105)     30804.3  Rx     0CF00000  8  FF 67 FF FF FF FF FF FF 
   106)     30804.7  Rx     0CF00000  8  FF 67 FF FF FF FF FF FF 
   107)     30805.0  Rx     0CF00000  8  FF 67 FF FF FF FF FF FF 
   108)     30805.3  Rx     0CF00000  8  FF 67 FF FF FF FF FF FF 
   109)     30805.7  Rx     0CF00000  8  FF 67 FF FF FF FF FF FF 
   110)     30806.0  Rx     0CF00000  8  FF 67 FF FF FF FF FF FF 
   111)     30806.3  Rx     0CF00000  8  FF 67 FF FF FF FF FF FF 
   112)     30806.6  Rx     0CF00000  8  FF 67 FF FF FF FF FF FF 
   113)     30806.9  Rx     18FDB300  8  25 CE 25 CE FF FF FF FF 
   114)     30807.2  Rx     18FDB300  8  25 CE 25 CE FF FF FF FF 
   115)     30807.5  Rx     18FDB300  8  25 CE 25 CE FF FF FF FF 
   116)     30807.9  Rx     18FDB300  8  25 CE 25 CE FF FF FF FF 
   117)     30808.2  Rx     18FDB300  8  25 CE 25 CE FF FF FF FF 
   118)     30808.5  Rx     18FDB300  8  25 CE 25 CE FF FF FF FF 
   119)     30808.8  Rx     18FDB300  8  25 CE 25 CE FF FF FF FF 
   120)     30809.1  Rx     18FDB300  8  25 CE 25 CE FF FF FF FF 
   121)     30809.4  Rx     18FDB300  8  25 CE 25 CE FF FF FF FF 
   122)     30809.8  Rx     18FEFC00  8  CD CD FF FF FF FF FF FF 
   123)     30810.1  Rx     18FEFC00  8  CD CD FF FF FF FF FF FF 
   124)     30810.4  Rx     18FEA600  8  25 CE 40 D2 FF FF FF FF 
   125)     30810.7  Rx     18FEA600  8  25 CE 40 D2 FF FF FF FF 
   126)     30811.0  Rx     18FEA600  8  25 CE 40 D2 FF FF FF FF 
   127)     30811.3  Rx     18FEA600  8  25 CE 40 D2 FF FF FF FF 
   128)     30811.7  Rx     18FEA600  8  25 CE 40 D2 FF FF FF FF 
   129)     30812.0  Rx     18FEA600  8  25 CE 40 D2 FF FF FF FF 
   130)     30812.3  Rx     18FEA600  8  25 CE 40 D2 FF FF FF FF 
   131)     30812.6  Rx     18FEA600  8  25 CE 40 D2 FF FF FF FF 
   132)     30812.9  Rx     18FEF200  8  25 CE 25 CE 25 CE FF FF 
   133)     30813.2  Rx     18FEF200  8  25 CE 25 CE 25 CE FF FF 
   134)     30813.5  Rx     18FEF200  8  25 CE 25 CE 25 CE FF FF 
   135)     30813.8  Rx     18FEF200  8  25 CE 25 CE 25 CE FF FF 
   136)     30814.2  Rx     18FEF200  8  25 CE 25 CE 25 CE FF FF 
   137)     30814.5  Rx     18FEF200  8  25 CE 25 CE 25 CE FF FF 
   138)     30814.7  Rx     18FEF200  8  25 CE 25 CE 25 CE FF FF 
   139)     30815.0  Rx     18FEF200  8  25 CE 25 CE 25 CE FF FF 
   140)     30815.3  Rx     18FEF200  8  25 CE 25 CE 25 CE FF FF 
   141)     30815.7  Rx     0CF00200  8  FF CE 67 FF FF FF FF FF 
   142)     30816.0  Rx     0CF00200  8  FF CE 67 FF FF FF FF FF 
   143)     30816.3  Rx     0CF00200  8  FF CE 67 FF FF FF FF FF 
   144)     30816.6  Rx     0CF00200  8  FF CE 67 FF FF FF FF FF 
   145)     30816.9  Rx     0CF00200  8  FF CE 67 FF FF FF FF FF 
   146)     30817.3  Rx     0CF00200  8  FF CE 67 FF FF FF FF FF 
   147)     30817.6  Rx     0CF00200  8  FF CE 67 FF FF FF FF FF 
   148)     30817.9  Rx     18FEEF00  8  CE FF FF CE FF FF FF FF 
   149)     30818.2  Rx     18FEEF00  8  CE FF FF CE FF FF FF FF 
   150)     30818.5  Rx     18FEEF00  8  CE FF FF CE FF FF FF FF 
   151)     30818.8  Rx     18FEEF00  8  CE FF FF CE FF FF FF FF 
   152)     30819.1  Rx     18FEEF00  8  CE FF FF CE FF FF FF FF 
   153)     30819.4  Rx     18FEEF00  8  CE FF FF CE FF FF FF FF 
   154)     30819.8  Rx     18FEEF00  8  CE FF FF CE FF FF FF FF 
   155)     30820.1  Rx     18FEEF00  8  CE FF FF CE FF FF FF FF 
   156)     30820.4  Rx     18FEEF00  8  CE FF FF CE FF FF FF FF 
   157)     30820.8  Rx     0CF00503  8  FF FF FF CE FF FF FF FF 
   158)     30821.1  Rx     0CF00503  8  FF FF FF CE FF FF FF FF 
   159)     30821.4  Rx     0CF00503  8  FF FF FF CE FF FF FF FF 
   160)     30821.7  Rx     0CF00503  8  FF FF FF CE FF FF FF FF 
   161)     30822.0  Rx     0CF00503  8  FF FF FF CE FF FF FF FF 
   162)     30822.4  Rx     0CF00503  8  FF FF FF CE FF FF FF FF 
   163)     30822.7  Rx     0CF00503  8  FF FF FF CE FF FF FF FF 
   164)     30823.0  Rx     0CF00503  8  FF FF FF CE FF FF FF FF 
   165)     30823.3  Rx     0CF00503  8  FF FF FF CE FF FF FF FF 
   166)     30823.7  Rx     0CF00503  8  FF FF FF CE FF FF FF FF 
   167)     30824.0  Rx     0CF00000  8  FF 67 FF FF FF FF FF FF 
   168)     30824.3  Rx     0CF00000  8  FF 67 FF FF FF FF FF FF 
   169)     30824.6  Rx     0CF00000  8  FF 67 FF FF FF FF FF FF 
   170)     30824.9  Rx     0CF00000  8  FF 67 FF FF FF FF FF FF 
   171)     30825.3  Rx     0CF00000  8  FF 67 FF FF FF FF FF FF 
   172)     30825.6  Rx     0CF00000  8  FF 67 FF FF FF FF FF FF 
   173)     30825.9  Rx     0CF00000  8  FF 67 FF FF FF FF FF FF 
   174)     30826.2  Rx     0CF00000  8  FF 67 FF FF FF FF FF FF 
   175)     30826.6  Rx     0CF00000  8  FF 67 FF FF FF FF FF FF 
   176)     30827.0  Rx     18FEF500  8  CE A6 CE A6 CE CE A6 CE 
   177)     30827.3  Rx     18FEF500  8  CE A6 CE A6 CE CE A6 CE 
   178)     30827.5  Rx     18FEBD00  8  CE FF A5 CE FF FF FF FF 
   179)     30827.8  Rx     18FEBD00  8  CE FF A5 CE FF FF FF FF 
   180)     30828.2  Rx     18FEBD00  8  CE FF A5 CE FF FF FF FF 
   181)     30828.5  Rx     18FEBD00  8  CE FF A5 CE FF FF FF FF 
   182)     30828.8  Rx     18FEBD00  8  CE FF A5 CE FF FF FF FF 
   183)     30829.1  Rx     18FEBD00  8  CE FF A5 CE FF FF FF FF 
   184)     30829.4  Rx     18FEBD00  8  CE FF A5 CE FF FF FF FF 
   185)     30830.0  Rx     18FEE600  8  C5 31 13 0A 69 CE FF FF 
   186)     30830.3  Rx     18FEA600  8  A5 CE C3 D2 FF FF FF FF 
   187)     30830.7  Rx     18FEA600  8  A5 CE C3 D2 FF FF FF FF 
   188)     30831.0  Rx     18FEA600  8  A5 CE C3 D2 FF FF FF FF 
   189)     30831.3  Rx     18FEA600  8  A5 CE C3 D2 FF FF FF FF 
   190)     30831.6  Rx     18FEA600  8  A5 CE C3 D2 FF FF FF FF 
   191)     30831.9  Rx     18FEA600  8  A5 CE C3 D2 FF FF FF FF 
   192)     30832.2  Rx     18FEA600  8  A5 CE C3 D2 FF FF FF FF 
   193)     30832.5  Rx     18FEA600  8  A5 CE C3 D2 FF FF FF FF 
   194)     30835.2  Rx     0CF00400  8  FC CE CE 26 CF FF FF CE 
   195)     30835.6  Rx     0CF00200  8  FF CE 67 FF FF FF FF FF 
   196)     30835.9  Rx     0CF00200  8  FF CE 67 FF FF FF FF FF 
   197)     30836.2  Rx     0CF00200  8  FF CE 67 FF FF FF FF FF 
   198)     30836.5  Rx     0CF00200  8  FF CE 67 FF FF FF FF FF 
   199)     30836.8  Rx     0CF00200  8  FF CE 67 FF FF FF FF FF 
   200)     30837.1  Rx     0CF00200  8  FF CE 67 FF FF FF FF FF 
   201)     30837.4  Rx     0CF00200  8  FF CE 67 FF FF FF FF FF 
   202)     30837.8  Rx     18FEF600  8  FF CE FF FF FF FF FF FF 
   203)     30838.1  Rx     0CF00900  8  22 CF FF 0D CF 29 CF CE 
   204)     30838.4  Rx     0CF00900  8  22 CF FF 0D CF 29 CF CE 
   205)     30838.7  Rx     0CF00900  8  22 CF FF 0D CF 29 CF CE 
   206)     30839.0  Rx     0CF00900  8  22 CF FF 0D CF 29 CF CE 
   207)     30839.3  Rx     0CF00900  8  22 CF FF 0D CF 29 CF CE 
   208)     30839.7  Rx     0CF00900  8  22 CF FF 0D CF 29 CF CE 
   209)     30840.0  Rx     0CF00900  8  22 CF FF 0D CF 29 CF CE 
   210)     30840.3  Rx     0CF00900  8  22 CF FF 0D CF 29 CF CE 
   211)     30840.6  Rx     0CF00900  8  22 CF FF 0D CF 29 CF CE 
   212)     30840.9  Rx     18FEF803  8  FF FF FF CE 26 CF FF FF 
   213)     30841.2  Rx     18F0010B  8  FF CE FF FF FF FF FF FF 
   214)     30841.5  Rx     18F0010B  8  FF CE FF FF FF FF FF FF 
   215)     30841.8  Rx     18F0010B  8  FF CE FF FF FF FF FF FF 
   216)     30842.1  Rx     18F0010B  8  FF CE FF FF FF FF FF FF 
   217)     30842.4  Rx     18F0010B  8  FF CE FF FF FF FF FF FF 
   218)     30842.8  Rx     18F0010B  8  FF CE FF FF FF FF FF FF 
   219)     30843.1  Rx     18F0010B  8  FF CE FF FF FF FF FF FF 
   220)     30843.4  Rx     18F0010B  8  FF CE FF FF FF FF FF FF 
   221)     30843.7  Rx     18F0010B  8  FF CE FF FF FF FF FF FF 
   222)     30844.0  Rx     18F02300  8  26 CF FF FF FF FF FF FF 
   223)     30844.4  Rx     18F02300  8  26 CF FF FF FF FF FF FF 
   224)     30844.7  Rx     18F02300  8  26 CF FF FF FF FF FF FF 
   225)     30845.0  Rx     18F02300  8  26 CF FF FF FF FF FF FF 
   226)     30845.3  Rx     18F02300  8  26 CF FF FF FF FF FF FF 
   227)     30845.6  Rx     18F02300  8  26 CF FF FF FF FF FF FF 
   228)     30845.9  Rx     18F02300  8  26 CF FF FF FF FF FF FF 
   229)     30846.2  Rx     18F02300  8  26 CF FF FF FF FF FF FF 
   230)     30846.6  Rx     18F02300  8  26 CF FF FF FF FF FF FF 
   231)     30846.9  Rx     18FEF700  8  CE FF 26 CF 26 CF FF FF 
   232)     30847.3  Rx     18FEBD00  8  CE FF 26 CF FF FF FF FF 
   233)     30847.6  Rx     18FEBD00  8  CE FF 26 CF FF FF FF FF 
   234)     30847.9  Rx     18FEBD00  8  CE FF 26 CF FF FF FF FF 
   235)     30848.2  Rx     18FEBD00  8  CE FF 26 CF FF FF FF FF 
   236)     30848.5  Rx     18FEBD00  8  CE FF 26 CF FF FF FF FF 
   237)     30848.8  Rx     18FEBD00  8  CE FF 26 CF FF FF FF FF 
   238)     30849.1  Rx     18FEBD00  8  CE FF 26 CF FF FF FF FF 
   239)     30849.5  Rx     18FEBD00  8  CE FF 26 CF FF FF FF FF 
   240)     30849.8  Rx     18FEBD00  8  CE FF 26 CF FF FF FF FF 
   241)     30850.1  Rx     18FEA600  8  26 CF 46 D3 FF FF FF FF 
   242)     30850.4  Rx     18FEA600  8  26 CF 46 D3 FF FF FF FF 
   243)     30850.7  Rx     18FEA600  8  26 CF 46 D3 FF FF FF FF 
   244)     30851.0  Rx     18FEA600  8  26 CF 46 D3 FF FF FF FF 
   245)     30851.4  Rx     18FEA600  8  26 CF 46 D3 FF FF FF FF 
   246)     30851.7  Rx     18FEA600  8  26 CF 46 D3 FF FF FF FF 
   247)     30852.0  Rx     18FEA600  8  26 CF 46 D3 FF FF FF FF 
   248)     30852.3  Rx     18FEA600  8  26 CF 46 D3 FF FF FF FF 
   249)     30852.6  Rx     18FEA600  8  26 CF 46 D3 FF FF FF FF 
   250)     30852.9  Rx     18FEA600  8  26 CF 46 D3 FF FF FF FF 
   251)     30853.2  Rx     18FEA600  8  26 CF 46 D3 FF FF FF FF 
   252)     30853.5  Rx     18FEA600  8  26 CF 46 D3 FF FF FF FF 
   253)     30853.8  Rx     18FEA600  8  26 CF 46 D3 FF FF FF FF 
   254)     30854.2  Rx     18FEA600  8  26 CF 46 D3 FF FF FF FF 
   255)     30854.5  Rx     18FEA600  8  26 CF 46 D3 FF FF FF FF 
   256)     30854.8  Rx     18FEA600  8  26 CF 46 D3 FF FF FF FF 
   257)     30855.1  Rx     18FEA600  8  26 CF 46 D3 FF FF FF FF 
   258)     30855.4  Rx     18FEA600  8  26 CF 46 D3 FF FF FF FF 
   259)     30855.7  Rx     18FEA600  8  26 CF 46 D3 FF FF FF FF 
   260)     30856.0  Rx     18FEA600  8  26 CF 46 D3 FF FF FF FF 
   261)     30856.3  Rx     18FEA600  8  26 CF 46 D3 FF FF FF FF 
   262)     30856.6  Rx     18FEA600  8  26 CF 46 D3 FF FF FF FF 
   263)     30857.0  Rx     18FEA600  8  26 CF 46 D3 FF FF FF FF 
   264)     30857.3  Rx     18FEA600  8  26 CF 46 D3 FF FF FF FF 
   265)     30857.6  Rx     18FEA600  8  26 CF 46 D3 FF FF FF FF 
   266)     30857.9  Rx     18FEA600  8  26 CF 46 D3 FF FF FF FF 
   267)     30858.2  Rx     18FEA600  8  26 CF 46 D3 FF FF FF FF 
   268)     30858.5  Rx     18FEA600  8  26 CF 46 D3 FF FF FF FF 
   269)     30858.9  Rx     0CF00200  8  FF CF 67 FF FF FF FF FF 
   270)     30859.2  Rx     0CF00200  8  FF CF 67 FF FF FF FF FF 
   271)     30859.5  Rx     0CF00200  8  FF CF 67 FF FF FF FF FF 
   272)     30859.9  Rx     0CF00200  8  FF CF 67 FF FF FF FF FF 
   273)     30860.2  Rx     0CF00200  8  FF CF 67 FF FF FF FF FF 
   274)     30860.5  Rx     0CF00200  8  FF CF 67 FF FF FF FF FF 
   275)     30860.8  Rx     0CF00200  8  FF CF 67 FF FF FF FF FF 
   276)     30861.2  Rx     0CF00200  8  FF CF 67 FF FF FF FF FF 
   277)     30861.5  Rx     0CF00200  8  FF CF 67 FF FF FF FF FF 
   278)     30861.8  Rx     0CF00200  8  FF CF 67 FF FF FF FF FF 
   279)     30862.1  Rx     0CF00900  8  A9 CF FF 94 CF B0 CF CF 
   280)     30862.4  Rx     0CF00503  8  FF FF FF CF FF FF FF FF 
   281)     30862.7  Rx     0CF00503  8  FF FF FF CF FF FF FF FF 
   282)     30863.0  Rx     0CF00503  8  FF FF FF CF FF FF FF FF 
   283)     30863.4  Rx     0CF00503  8  FF FF FF CF FF FF FF FF 
   284)     30863.7  Rx     0CF00503  8  FF FF FF CF FF FF FF FF 
   285)     30864.0  Rx     0CF00503  8  FF FF FF CF FF FF FF FF 
   286)     30864.4  Rx     0CF00503  8  FF FF FF CF FF FF FF FF 
   287)     30864.7  Rx     0CF00503  8  FF FF FF CF FF FF FF FF 
   288)     30865.0  Rx     18F0010B  8  FF CF FF FF FF FF FF FF 
   289)     30865.3  Rx     0CF00000  8  FF 67 FF FF FF FF FF FF 
   290)     30865.6  Rx     0CF00000  8  FF 67 FF FF FF FF FF FF 
   291)     30865.9  Rx     0CF00000  8  FF 67 FF FF FF FF FF FF 
   292)     30866.3  Rx     0CF00000  8  FF 67 FF FF FF FF FF FF 
   293)     30866.6  Rx     0CF00000  8  FF 67 FF FF FF FF FF FF 
   294)     30866.9  Rx     0CF00000  8  FF 67 FF FF FF FF FF FF 
   295)     30867.3  Rx     0CF00000  8  FF 67 FF FF FF FF FF FF 
   296)     30867.6  Rx     0CF00000  8  FF 67 FF FF FF FF FF FF 
   297)     30868.0  Rx     18FE5600  8  CF CF FF FF FF FF FF FF 
   298)     30868.3  Rx     18FDB300  8  AD CF AD CF FF FF FF FF 
   299)     30868.6  Rx     18FDB300  8  AD CF AD CF FF FF FF FF 
   300)     30868.9  Rx     18FDB300  8  AD CF AD CF FF FF FF FF 
   301)     30869.2  Rx     18FDB300  8  AD CF AD CF FF FF FF FF 
   302)     30869.5  Rx     18FDB300  8  AD CF AD CF FF FF FF FF 
   303)     30869.9  Rx     18FDB300  8  AD CF AD CF FF FF FF FF 
   304)     30870.2  Rx     18FDB300  8  AD CF AD CF FF FF FF FF 
   305)     30870.5  Rx     18FDB300  8  AD CF AD CF FF FF FF FF 
   306)     30870.8  Rx     18FDB300  8  AD CF AD CF FF FF FF FF 
   307)     30871.1  Rx     18FEBD00  8  CF FF AD CF FF FF FF FF 
   308)     30871.5  Rx     18FEBD00  8  CF FF AD CF FF FF FF FF 
   309)     30871.8  Rx     18FEBD00  8  CF FF AD CF FF FF FF FF 
   310)     30872.0  Rx     18FEBD00  8  CF FF AD CF FF FF FF FF 
   311)     30872.4  Rx     18FEBD00  8  CF FF AD CF FF FF FF FF 
   312)     30872.7  Rx     18FEBD00  8  CF FF AD CF FF FF FF FF 
   313)     30873.0  Rx     18FEBD00  8  CF FF AD CF FF FF FF FF 
   314)     30873.3  Rx     18FEBD00  8  CF FF AD CF FF FF FF FF 
   315)     30873.6  Rx     18FEBD00  8  CF FF AD CF FF FF FF FF 
   316)     30874.0  Rx     18FEFF00  8  FE FF FF FF FF FF FF FF 
   317)     30874.3  Rx     18FEF200  8  AD CF AD CF AD CF FF FF 
   318)     30874.6  Rx     18FEF200  8  AD CF AD CF AD CF FF FF 
   319)     30874.9  Rx     18FEF200  8  AD CF AD CF AD CF FF FF 
   320)     30875.2  Rx     18FEF200  8  AD CF AD CF AD CF FF FF 
   321)     30875.5  Rx     18FEF200  8  AD CF AD CF AD CF FF FF 
   322)     30875.8  Rx     18FEF200  8  AD CF AD CF AD CF FF FF 
   323)     30876.1  Rx     18FEF200  8  AD CF AD CF AD CF FF FF 
   324)     30876.4  Rx     18FEF200  8  AD CF AD CF AD CF FF FF 
   325)     30876.7  Rx     0CF00400  8  FC CF CF 2D D0 FF FF CF 
   326)     30877.0  Rx     0CF00400  8  FC CF CF 2D D0 FF FF CF 
   327)     30877.4  Rx     0CF00400  8  FC CF CF 2D D0 FF FF CF 
   328)     30877.7  Rx     0CF00400  8  FC CF CF 2D D0 FF FF CF 
   329)     30878.0  Rx     0CF00400  8  FC CF CF 2D D0 FF FF CF 
   330)     30878.3  Rx     0CF00400  8  FC CF CF 2D D0 FF FF CF 
   331)     30878.6  Rx     0CF00400  8  FC CF CF 2D D0 FF FF CF 
   332)     30879.0  Rx     18FEEE00  8  CF 2E D0 FF FF FF FF FF 
   333)     30879.3  Rx     18FEEE00  8  CF 2E D0 FF FF FF FF FF 
   334)     30879.6  Rx     18FEEE00  8  CF 2E D0 FF FF FF FF FF 
   335)     30879.9  Rx     18FEEE00  8  CF 2E D0 FF FF FF FF FF 
   336)     30880.2  Rx     18FEEE00  8  CF 2E D0 FF FF FF FF FF 
   337)     30880.6  Rx     18FEEE00  8  CF 2E D0 FF FF FF FF FF 
   338)     30880.9  Rx     18FEEE00  8  CF 2E D0 FF FF FF FF FF 
   339)     30881.2  Rx     18FEEE00  8  CF 2E D0 FF FF FF FF FF 
   340)     30881.5  Rx     18FEEE00  8  CF 2E D0 FF FF FF FF FF 
   341)     30881.8  Rx     18FEEE00  8  CF 2E D0 FF FF FF FF FF 
   342)     30882.1  Rx     0CF00900  8  2A D0 FF 14 D0 30 D0 CF 
   343)     30882.5  Rx     0CF00503  8  FF FF FF CF FF FF FF FF 
   344)     30882.8  Rx     0CF00503  8  FF FF FF CF FF FF FF FF 
   345)     30883.1  Rx     0CF00503  8  FF FF FF CF FF FF FF FF 
   346)     30883.4  Rx     0CF00503  8  FF FF FF CF FF FF FF FF 
   347)     30883.7  Rx     0CF00503  8  FF FF FF CF FF FF FF FF 
   348)     30884.0  Rx     0CF00503  8  FF FF FF CF FF FF FF FF 
   349)     30884.4  Rx     0CF00503  8  FF FF FF CF FF FF FF FF 
   350)     30884.7  Rx     0CF00503  8  FF FF FF CF FF FF FF FF 
   351)     30885.0  Rx     18FEFA0B  8  CF FF FF FF FF FF FF FF 
   352)     30885.3  Rx     0CF00000  8  FF 68 FF FF FF FF FF FF 
   353)     30885.7  Rx     0CF00000  8  FF 68 FF FF FF FF FF FF 
   354)     30886.0  Rx     0CF00000  8  FF 68 FF FF FF FF FF FF 
   355)     30886.3  Rx     0CF00000  8  FF 68 FF FF FF FF FF FF 
   356)     30886.6  Rx     0CF00000  8  FF 68 FF FF FF FF FF FF 
   357)     30886.9  Rx     0CF00000  8  FF 68 FF FF FF FF FF FF 
   358)     30887.2  Rx     0CF00000  8  FF 68 FF FF FF FF FF FF 
   359)     30887.6  Rx     0CF00000  8  FF 68 FF FF FF FF FF FF 
   360)     30887.9  Rx     0CF00000  8  FF 68 FF FF FF FF FF FF 
   361)     30888.2  Rx     18FDB300  8  2E D0 2E D0 FF FF FF FF 
   362)     30888.5  Rx     18FDB300  8  2E D0 2E D0 FF FF FF FF 
   363)     30888.9  Rx     18FDB300  8  2E D0 2E D0 FF FF FF FF 
   364)     30889.2  Rx     18FDB300  8  2E D0 2E D0 FF FF FF FF 
   365)     30889.5  Rx     18FDB300  8  2E D0 2E D0 FF FF FF FF 
   366)     30889.8  Rx     18FDB300  8  2E D0 2E D0 FF FF FF FF 
   367)     30890.1  Rx     18FDB300  8  2E D0 2E D0 FF FF FF FF 
   368)     30890.4  Rx     18FDB300  8  2E D0 2E D0 FF FF FF FF 
   369)     30890.7  Rx     18FDB300  8  2E D0 2E D0 FF FF FF FF 
   370)     30891.1  Rx     18FEFC00  8  CF CF FF FF FF FF FF FF 
   371)     30891.4  Rx     18FEFC00  8  CF CF FF FF FF FF FF FF 
   372)     30891.7  Rx     18FEA600  8  2D D0 53 D4 FF FF FF FF 
   373)     30892.0  Rx     18FEA600  8  2D D0 53 D4 FF FF FF FF 
   374)     30892.3  Rx     18FEA600  8  2D D0 53 D4 FF FF FF FF 
   375)     30892.7  Rx     18FEA600  8  2D D0 53 D4 FF FF FF FF 
   376)     30893.0  Rx     18FEA600  8  2D D0 53 D4 FF FF FF FF 
   377)     30893.3  Rx     18FEA600  8  2D D0 53 D4 FF FF FF FF 
   378)     30893.6  Rx     18FEA600  8  2D D0 53 D4 FF FF FF FF 
   379)     30893.9  Rx     18FEA600  8  2D D0 53 D4 FF FF FF FF 
   380)     30894.2  Rx     18FEF200  8  2D D0 2E D0 2E D0 FF FF 
   381)     30894.5  Rx     18FEF200  8  2D D0 2E D0 2E D0 FF FF 
   382)     30894.8  Rx     18FEF200  8  2D D0 2E D0 2E D0 FF FF 
   383)     30895.1  Rx     18FEF200  8  2D D0 2E D0 2E D0 FF FF 
   384)     30895.4  Rx     18FEF200  8  2D D0 2E D0 2E D0 FF FF 
   385)     30895.7  Rx     18FEF200  8  2D D0 2E D0 2E D0 FF FF 
   386)     30896.1  Rx     18FEF200  8  2D D0 2E D0 2E D0 FF FF 
   387)     30896.4  Rx     18FEF200  8  2D D0 2E D0 2E D0 FF FF 
   388)     30896.7  Rx     0CF00400  8  FC D0 D0 AE D0 FF FF D0 
   389)     30897.0  Rx     0CF00200  8  FF D0 68 FF FF FF FF FF 
   390)     30897.3  Rx     0CF00200  8  FF D0 68 FF FF FF FF FF 
   391)     30897.6  Rx     0CF00200  8  FF D0 68 FF FF FF FF FF 
   392)     30897.9  Rx     0CF00200  8  FF D0 68 FF FF FF FF FF 
   393)     30898.2  Rx     0CF00200  8  FF D0 68 FF FF FF FF FF 
   394)     30898.6  Rx     0CF00200  8  FF D0 68 FF FF FF FF FF 
   395)     30898.9  Rx     0CF00200  8  FF D0 68 FF FF FF FF FF 
   396)     30899.2  Rx     18FEEF00  8  D0 FF FF D0 FF FF FF FF 
   397)     30899.5  Rx     18FEEF00  8  D0 FF FF D0 FF FF FF FF 
   398)     30899.9  Rx     18FEEF00  8  D0 FF FF D0 FF FF FF FF 
   399)     30900.2  Rx     18FEEF00  8  D0 FF FF D0 FF FF FF FF 
   400)     30900.5  Rx     18FEEF00  8  D0 FF FF D0 FF FF FF FF 
   401)     30900.8  Rx     18FEEF00  8  D0 FF FF D0 FF FF FF FF 
   402)     30901.1  Rx     18FEEF00  8  D0 FF FF D0 FF FF FF FF 
   403)     30901.4  Rx     18FEEF00  8  D0 FF FF D0 FF FF FF FF 
   404)     30901.7  Rx     18FEEF00  8  D0 FF FF D0 FF FF FF FF 
   405)     30902.0  Rx     0CF00503  8  FF FF FF D0 FF FF FF FF 
   406)     30902.4  Rx     0CF00503  8  FF FF FF D0 FF FF FF FF 
   407)     30902.7  Rx     0CF00503  8  FF FF FF D0 FF FF FF FF 
   408)     30903.0  Rx     0CF00503  8  FF FF FF D0 FF FF FF FF 
   409)     30903.3  Rx     0CF00503  8  FF FF FF D0 FF FF FF FF 
   410)     30903.6  Rx     0CF00503  8  FF FF FF D0 FF FF FF FF 
   411)     30904.0  Rx     0CF00503  8  FF FF FF D0 FF FF FF FF 
   412)     30904.3  Rx     0CF00503  8  FF FF FF D0 FF FF FF FF 
   413)     30904.6  Rx     0CF00503  8  FF FF FF D0 FF FF FF FF 
   414)     30904.9  Rx     0CF00503  8  FF FF FF D0 FF FF FF FF 
   415)     30905.2  Rx     0CF00000  8  FF 68 FF FF FF FF FF FF 
   416)     30905.5  Rx     0CF00000  8  FF 68 FF FF FF FF FF FF 
   417)     30905.9  Rx     0CF00000  8  FF 68 FF FF FF FF FF FF 
   418)     30906.2  Rx     0CF00000  8  FF 68 FF FF FF FF FF FF 
   419)     30906.5  Rx     0CF00000  8  FF 68 FF FF FF FF FF FF 
   420)     30906.8  Rx     0CF00000  8  FF 68 FF FF FF FF FF FF 
   421)     30907.2  Rx     0CF00000  8  FF 68 FF FF FF FF FF FF 
   422)     30907.5  Rx     0CF00000  8  FF 68 FF FF FF FF FF FF 
   423)     30907.8  Rx     0CF00000  8  FF 68 FF FF FF FF FF FF 
   424)     30908.2  Rx     18FEF500  8  D0 AE D0 AE D0 D0 AE D0 
   425)     30908.5  Rx     18FEF500  8  D0 AE D0 AE D0 D0 AE D0 
   426)     30908.8  Rx     18FEBD00  8  D0 FF AE D0 FF FF FF FF 
   427)     30909.1  Rx     18FEBD00  8  D0 FF AE D0 FF FF FF FF 
   428)     30909.5  Rx     18FEBD00  8  D0 FF AE D0 FF FF FF FF 
   429)     30909.8  Rx     18FEBD00  8  D0 FF AE D0 FF FF FF FF 
   430)     30910.1  Rx     18FEBD00  8  D0 FF AE D0 FF FF FF FF 
   431)     30910.4  Rx     18FEBD00  8  D0 FF AE D0 FF FF FF FF 
   432)     30910.7  Rx     18FEBD00  8  D0 FF AE D0 FF FF FF FF 
   433)     30911.3  Rx     18FEE600  8  C7 31 13 0A 6A D0 FF FF 
   434)     30911.6  Rx     18FEA600  8  AE D0 D6 D4 FF FF FF FF 
   435)     30911.9  Rx     18FEA600  8  AE D0 D6 D4 FF FF FF FF 
   436)     30912.2  Rx     18FEA600  8  AE D0 D6 D4 FF FF FF FF 
   437)     30912.5  Rx     18FEA600  8  AE D0 D6 D4 FF FF FF FF 
   438)     30912.8  Rx     18FEA600  8  AE D0 D6 D4 FF FF FF FF 
   439)     30913.1  Rx     18FEA600  8  AE D0 D6 D4 FF FF FF FF 
   440)     30913.5  Rx     18FEA600  8  AE D0 D6 D4 FF FF FF FF 
   441)     30913.8  Rx     18FEA600  8  AE D0 D6 D4 FF FF FF FF 
   442)     30916.5  Rx     0CF00400  8  FD D0 D0 2E D1 FF FF D0 
   443)     30916.8  Rx     0CF00200  8  FF D0 68 FF FF FF FF FF 
   444)     30917.1  Rx     0CF00200  8  FF D0 68 FF FF FF FF FF 
   445)     30917.5  Rx     0CF00200  8  FF D0 68 FF FF FF FF FF 
   446)     30917.8  Rx     0CF00200  8  FF D0 68 FF FF FF FF FF 
   447)     30918.1  Rx     0CF00200  8  FF D0 68 FF FF FF FF FF 
   448)     30918.4  Rx     0CF00200  8  FF D0 68 FF FF FF FF FF 
   449)     30918.8  Rx     0CF00200  8  FF D0 68 FF FF FF FF FF 
   450)     30919.1  Rx     18FEF600  8  FF D0 FF FF FF FF FF FF 
   451)     30919.4  Rx     0CF00900  8  2B D1 FF 15 D1 31 D1 D0 
   452)     30919.7  Rx     0CF00900  8  2B D1 FF 15 D1 31 D1 D0 
   453)     30920.0  Rx     0CF00900  8  2B D1 FF 15 D1 31 D1 D0 
   454)     30920.3  Rx     0CF00900  8  2B D1 FF 15 D1 31 D1 D0 
   455)     30920.6  Rx     0CF00900  8  2B D1 FF 15 D1 31 D1 D0 
   456)     30920.9  Rx     0CF00900  8  2B D1 FF 15 D1 31 D1 D0 
   457)     30921.2  Rx     0CF00900  8  2B D1 FF 15 D1 31 D1 D0 
   458)     30921.5  Rx     0CF00900  8  2B D1 FF 15 D1 31 D1 D0 
   459)     30921.8  Rx     0CF00900  8  2B D1 FF 15 D1 31 D1 D0 
   460)     30922.1  Rx     18FEF803  8  FF FF FF D0 2F D1 FF FF 
   461)     30922.4  Rx     18F0010B  8  FF D0 FF FF FF FF FF FF 
   462)     30922.8  Rx     18F0010B  8  FF D0 FF FF FF FF FF FF 
   463)     30923.1  Rx     18F0010B  8  FF D0 FF FF FF FF FF FF 
   464)     30923.4  Rx     18F0010B  8  FF D0 FF FF FF FF FF FF 
   465)     30923.7  Rx     18F0010B  8  FF D0 FF FF FF FF FF FF 
   466)     30924.0  Rx     18F0010B  8  FF D0 FF FF FF FF FF FF 
   467)     30924.4  Rx     18F0010B  8  FF D0 FF FF FF FF FF FF 
   468)     30924.7  Rx     18F0010B  8  FF D0 FF FF FF FF FF FF 
   469)     30925.0  Rx     18F0010B  8  FF D0 FF FF FF FF FF FF 
   470)     30925.3  Rx     18F02300  8  2E D1 FF FF FF FF FF FF 
   471)     30925.6  Rx     18F02300  8  2E D1 FF FF FF FF FF FF 
   472)     30925.9  Rx     18F02300  8  2E D1 FF FF FF FF FF FF 
   473)     30926.2  Rx     18F02300  8  2E D1 FF FF FF FF FF FF 
   474)     30926.6  Rx     18F02300  8  2E D1 FF FF FF FF FF FF 
   475)     30926.9  Rx     18F02300  8  2E D1 FF FF FF FF FF FF 
   476)     30927.2  Rx     18F02300  8  2E D1 FF FF FF FF FF FF 
   477)     30927.5  Rx     18F02300  8  2E D1 FF FF FF FF FF FF 
   478)     30927.8  Rx     18F02300  8  2E D1 FF FF FF FF FF FF 
   479)     30928.2  Rx     18FEF700  8  D0 FF 2E D1 2E D1 FF FF 
   480)     30928.5  Rx     18FEBD00  8  D0 FF 2E D1 FF FF FF FF 
   481)     30928.8  Rx     18FEBD00  8  D0 FF 2E D1 FF FF FF FF 
   482)     30929.1  Rx     18FEBD00  8  D0 FF 2E D1 FF FF FF FF 
   483)     30929.5  Rx     18FEBD00  8  D0 FF 2E D1 FF FF FF FF 
   484)     30929.8  Rx     18FEBD00  8  D0 FF 2E D1 FF FF FF FF 
   485)     30930.1  Rx     18FEBD00  8  D0 FF 2E D1 FF FF FF FF 
   486)     30930.4  Rx     18FEBD00  8  D0 FF 2E D1 FF FF FF FF 
   487)     30930.7  Rx     18FEBD00  8  D0 FF 2E D1 FF FF FF FF 
   488)     30931.0  Rx     18FEBD00  8  D0 FF 2E D1 FF FF FF FF 
   489)     30931.4  Rx     18FEA600  8  2E D1 59 D5 FF FF FF FF 
   490)     30931.7  Rx     18FEA600  8  2E D1 59 D5 FF FF FF FF 
   491)     30932.0  Rx     18FEA600  8  2E D1 59 D5 FF FF FF FF 
   492)     30932.3  Rx     18FEA600  8  2E D1 59 D5 FF FF FF FF 
   493)     30932.6  Rx     18FEA600  8  2E D1 59 D5 FF FF FF FF 
   494)     30932.9  Rx     18FEA600  8  2E D1 59 D5 FF FF FF FF 
   495)     30933.2  Rx     18FEA600  8  2E D1 59 D5 FF FF FF FF 
   496)     30933.5  Rx     18FEA600  8  2E D1 59 D5 FF FF FF FF 
   497)     30933.8  Rx     18FEA600  8  2E D1 59 D5 FF FF FF FF 
   498)     30934.1  Rx     18FEA600  8  2E D1 59 D5 FF FF FF FF 
   499)     30934.4  Rx     18FEA600  8  2E D1 59 D5 FF FF FF FF 
   500)     30934.8  Rx     18FEA600  8  2E D1 59 D5 FF FF FF FF 
   501)     30935.1  Rx     18FEA600  8  2E D1 59 D5 FF FF FF FF 
   502)     30935.4  Rx     18FEA600  8  2E D1 59 D5 FF FF FF FF 
   503)     30935.7  Rx     18FEA600  8  2E D1 59 D5 FF FF FF FF 
   504)     30936.0  Rx     18FEA600  8  2E D1 59 D5 FF FF FF FF 
   505)     30936.3  Rx     18FEA600  8  2E D1 59 D5 FF FF FF FF 
   506)     30936.6  Rx     18FEA600  8  2E D1 59 D5 FF FF FF FF 
   507)     30936.9  Rx     18FEA600  8  2E D1 59 D5 FF FF FF FF 
   508)     30937.2  Rx     18FEA600  8  2E D1 59 D5 FF FF FF FF 
   509)     30937.5  Rx     18FEA600  8  2E D1 59 D5 FF FF FF FF 
   510)     30937.9  Rx     18FEA600  8  2E D1 59 D5 FF FF FF FF 
   511)     30938.2  Rx     18FEA600  8  2E D1 59 D5 FF FF FF FF 
   512)     30938.5  Rx     18FEA600  8  2E D1 59 D5 FF FF FF FF 
   513)     30938.8  Rx     18FEA600  8  2E D1 59 D5 FF FF FF FF 
   514)     30939.1  Rx     18FEA600  8  2E D1 59 D5 FF FF FF FF 
   515)     30939.4  Rx     18FEA600  8  2E D1 59 D5 FF FF FF FF 
   516)     30939.7  Rx     18FEA600  8  2E D1 59 D5 FF FF FF FF 
   517)     30940.1  Rx     18FEA600  8  2E D1 59 D5 FF FF FF FF 
   518)     30940.4  Rx     18FEA600  8  2E D1 59 D5 FF FF FF FF 
   519)     30940.7  Rx     18FEA600  8  2E D1 59 D5 FF FF FF FF 
   520)     30941.0  Rx     18FEA600  8  2E D1 59 D5 FF FF FF FF 
   521)     30941.3  Rx     18FEA600  8  2E D1 59 D5 FF FF FF FF 
   522)     30941.6  Rx     18FEA600  8  2E D1 59 D5 FF FF FF FF 
   523)     30941.9  Rx     18FEA600  8  2E D1 59 D5 FF FF FF FF 
   524)     30942.2  Rx     18FEA600  8  2E D1 59 D5 FF FF FF FF 
   525)     30942.5  Rx     18FEA600  8  2E D1 59 D5 FF FF FF FF 
   526)     30942.8  Rx     18FEA600  8  2E D1 59 D5 FF FF FF FF 
   527)     30943.2  Rx     18FEA600  8  2E D1 59 D5 FF FF FF FF 
   528)     30943.5  Rx     18FEA600  8  2E D1 59 D5 FF FF FF FF 
   529)     30943.8  Rx     18FEA600  8  2E D1 59 D5 FF FF FF FF 
   530)     30944.1  Rx     18FEA600  8  2E D1 59 D5 FF FF FF FF 
   531)     30944.4  Rx     18FEA600  8  2E D1 59 D5 FF FF FF FF 
   532)     30944.7  Rx     18FEA600  8  2E D1 59 D5 FF FF FF FF 
   533)     30945.0  Rx     18FEA600  8  2E D1 59 D5 FF FF FF FF 
   534)     30945.3  Rx     18FEA600  8  2E D1 59 D5 FF FF FF FF 
   535)     30945.6  Rx     18FEA600  8  2E D1 59 D5 FF FF FF FF 
   536)     30945.9  Rx     18FEA600  8  2E D1 59 D5 FF FF FF FF 
   537)     30946.3  Rx     18FEA600  8  2E D1 59 D5 FF FF FF FF 
   538)     30946.6  Rx     18FEA600  8  2E D1 59 D5 FF FF FF FF 
   539)     30946.9  Rx     18FEA600  8  2E D1 59 D5 FF FF FF FF 
   540)     30947.2  Rx     18FEA600  8  2E D1 59 D5 FF FF FF FF 
   541)     30947.5  Rx     18FEA600  8  2E D1 59 D5 FF FF FF FF 
   542)     30947.8  Rx     18FEA600  8  2E D1 59 D5 FF FF FF FF 
   543)     30948.1  Rx     18FEA600  8  2E D1 59 D5 FF FF FF FF 
   544)     30948.5  Rx     18FEA600  8  2E D1 59 D5 FF FF FF FF 
   545)     30948.8  Rx     18FEA600  8  2E D1 59 D5 FF FF FF FF 
   546)     30949.1  Rx     18FEA600  8  2E D1 59 D5 FF FF FF FF 
   547)     30949.4  Rx     0CF00200  8  FF D1 69 FF FF FF FF FF 
   548)     30949.7  Rx     0CF00200  8  FF D1 69 FF FF FF FF FF 
   549)     30950.0  Rx     0CF00200  8  FF D1 69 FF FF FF FF FF 
   550)     30950.3  Rx     0CF00200  8  FF D1 69 FF FF FF FF FF 
   551)     30950.6  Rx     0CF00200  8  FF D1 69 FF FF FF FF FF 
   552)     30951.0  Rx     0CF00200  8  FF D1 69 FF FF FF FF FF 
   553)     30951.3  Rx     0CF00200  8  FF D1 69 FF FF FF FF FF 
   554)     30951.6  Rx     0CF00200  8  FF D1 69 FF FF FF FF FF 
   555)     30951.9  Rx     0CF00200  8  FF D1 69 FF FF FF FF FF 
   556)     30952.3  Rx     18FEF100  8  FF E9 D1 FF FF FF FF FF 
   557)     30952.6  Rx     0CF00503  8  FF FF FF D1 FF FF FF FF 
   558)     30952.9  Rx     0CF00503  8  FF FF FF D1 FF FF FF FF 
   559)     30953.2  Rx     0CF00503  8  FF FF FF D1 FF FF FF FF 
   560)     30953.5  Rx     0CF00503  8  FF FF FF D1 FF FF FF FF 
   561)     30953.8  Rx     0CF00503  8  FF FF FF D1 FF FF FF FF 
   562)     30954.1  Rx     0CF00503  8  FF FF FF D1 FF FF FF FF 
   563)     30954.5  Rx     0CF00503  8  FF FF FF D1 FF FF FF FF 
   564)     30954.8  Rx     0CF00503  8  FF FF FF D1 FF FF FF FF 
   565)     30955.1  Rx     0CF00503  8  FF FF FF D1 FF FF FF FF 
   566)     30955.4  Rx     18F0010B  8  FF D1 FF FF FF FF FF FF 
   567)     30955.7  Rx     0CF00000  8  FF 69 FF FF FF FF FF FF 
   568)     30956.1  Rx     0CF00000  8  FF 69 FF FF FF FF FF FF 
   569)     30956.4  Rx     0CF00000  8  FF 69 FF FF FF FF FF FF 
   570)     30956.7  Rx     0CF00000  8  FF 69 FF FF FF FF FF FF 
   571)     30957.0  Rx     0CF00000  8  FF 69 FF FF FF FF FF FF 
   572)     30957.3  Rx     0CF00000  8  FF 69 FF FF FF FF FF FF 
   573)     30957.7  Rx     0CF00000  8  FF 69 FF FF FF FF FF FF 
   574)     30958.0  Rx     0CF00000  8  FF 69 FF FF FF FF FF FF 
   575)     30958.3  Rx     18FE5600  8  D1 D1 FF FF FF FF FF FF 
   576)     30958.6  Rx     18FDB300  8  E9 D1 E9 D1 FF FF FF FF 
   577)     30958.9  Rx     18FDB300  8  E9 D1 E9 D1 FF FF FF FF 
   578)     30959.2  Rx     18FDB300  8  E9 D1 E9 D1 FF FF FF FF 
   579)     30959.5  Rx     18FDB300  8  E9 D1 E9 D1 FF FF FF FF 
   580)     30959.9  Rx     18FDB300  8  E9 D1 E9 D1 FF FF FF FF 
   581)     30960.2  Rx     18FDB300  8  E9 D1 E9 D1 FF FF FF FF 
   582)     30960.5  Rx     18FDB300  8  E9 D1 E9 D1 FF FF FF FF 
   583)     30960.8  Rx     18FDB300  8  E9 D1 E9 D1 FF FF FF FF 
   584)     30961.1  Rx     18FDB300  8  E9 D1 E9 D1 FF FF FF FF 
   585)     30961.4  Rx     18FEBD00  8  D1 FF E8 D1 FF FF FF FF 
   586)     30961.7  Rx     18FEBD00  8  D1 FF E8 D1 FF FF FF FF 
   587)     30962.0  Rx     18FEBD00  8  D1 FF E8 D1 FF FF FF FF 
   588)     30962.3  Rx     18FEBD00  8  D1 FF E8 D1 FF FF FF FF 
   589)     30962.7  Rx     18FEBD00  8  D1 FF E8 D1 FF FF FF FF 
   590)     30963.0  Rx     18FEBD00  8  D1 FF E8 D1 FF FF FF FF 
   591)     30963.3  Rx     18FEBD00  8  D1 FF E8 D1 FF FF FF FF 
   592)     30963.6  Rx     18FEBD00  8  D1 FF E8 D1 FF FF FF FF 
   593)     30963.9  Rx     18FEBD00  8  D1 FF E8 D1 FF FF FF FF 
   594)     30964.3  Rx     18FEFF00  8  FF FF FF FF FF FF FF FF 
   595)     30964.5  Rx     18FEF200  8  E8 D1 E9 D1 E9 D1 FF FF 
   596)     30964.9  Rx     18FEF200  8  E8 D1 E9 D1 E9 D1 FF FF 
   597)     30965.2  Rx     18FEF200  8  E8 D1 E9 D1 E9 D1 FF FF 
   598)     30965.5  Rx     18FEF200  8  E8 D1 E9 D1 E9 D1 FF FF 
   599)     30965.8  Rx     18FEF200  8  E8 D1 E9 D1 E9 D1 FF FF 
   600)     30966.1  Rx     0CF00400  8  FD D2 D2 69 D2 FF FF D2 
   601)     30966.4  Rx     0CF00400  8  FD D2 D2 69 D2 FF FF D2 
   602)     30966.7  Rx     0CF00400  8  FD D2 D2 69 D2 FF FF D2 
   603)     30967.0  Rx     0CF00400  8  FD D2 D2 69 D2 FF FF D2 
   604)     30967.3  Rx     0CF00400  8  FD D2 D2 69 D2 FF FF D2 
   605)     30967.6  Rx     0CF00400  8  FD D2 D2 69 D2 FF FF D2 
   606)     30967.9  Rx     0CF00400  8  FD D2 D2 69 D2 FF FF D2 
   607)     30968.3  Rx     18FEEE00  8  D2 6A D2 FF FF FF FF FF 
   608)     30968.6  Rx     18FEEE00  8  D2 6A D2 FF FF FF FF FF 
   609)     30968.9  Rx     18FEEE00  8  D2 6A D2 FF FF FF FF FF 
   610)     30969.2  Rx     18FEEE00  8  D2 6A D2 FF FF FF FF FF 
   611)     30969.5  Rx     18FEEE00  8  D2 6A D2 FF FF FF FF FF 
   612)     30969.9  Rx     18FEEE00  8  D2 6A D2 FF FF FF FF FF 
   613)     30970.2  Rx     18FEEE00  8  D2 6A D2 FF FF FF FF FF 
   614)     30970.5  Rx     18FEEE00  8  D2 6A D2 FF FF FF FF FF 
   615)     30970.8  Rx     18FEEE00  8  D2 6A D2 FF FF FF FF FF 
   616)     30971.1  Rx     18FEEE00  8  D2 6A D2 FF FF FF FF FF 
   617)     30971.4  Rx     0CF00900  8  65 D2 FF 50 D2 6C D2 D2 
   618)     30971.8  Rx     0CF00503  8  FF FF FF D2 FF FF FF FF 
   619)     30972.1  Rx     0CF00503  8  FF FF FF D2 FF FF FF FF 
   620)     30972.4  Rx     0CF00503  8  FF FF FF D2 FF FF FF FF 
   621)     30972.7  Rx     0CF00503  8  FF FF FF D2 FF FF FF FF 
   622)     30973.0  Rx     0CF00503  8  FF FF FF D2 FF FF FF FF 
   623)     30973.3  Rx     0CF00503  8  FF FF FF D2 FF FF FF FF 
   624)     30973.6  Rx     0CF00503  8  FF FF FF D2 FF FF FF FF 
   625)     30974.0  Rx     0CF00503  8  FF FF FF D2 FF FF FF FF 
   626)     30974.3  Rx     18FEFA0B  8  D2 FF FF FF FF FF FF FF 
   627)     30974.6  Rx     0CF00000  8  FF 69 FF FF FF FF FF FF 
   628)     30974.9  Rx     0CF00000  8  FF 69 FF FF FF FF FF FF 
   629)     30975.3  Rx     0CF00000  8  FF 69 FF FF FF FF FF FF 
   630)     30975.6  Rx     0CF00000  8  FF 69 FF FF FF FF FF FF 
   631)     30975.9  Rx     0CF00000  8  FF 69 FF FF FF FF FF FF 
   632)     30976.2  Rx     0CF00000  8  FF 69 FF FF FF FF FF FF 
   633)     30976.5  Rx     0CF00000  8  FF 69 FF FF FF FF FF FF 
   634)     30976.8  Rx     0CF00000  8  FF 69 FF FF FF FF FF FF 
   635)     30977.2  Rx     0CF00000  8  FF 69 FF FF FF FF FF FF 
   636)     30977.5  Rx     18FDB300  8  6A D2 6A D2 FF FF FF FF 
   637)     30977.8  Rx     18FDB300  8  6A D2 6A D2 FF FF FF FF 
   638)     30978.1  Rx     18FDB300  8  6A D2 6A D2 FF FF FF FF 
   639)     30978.4  Rx     18FDB300  8  6A D2 6A D2 FF FF FF FF 
   640)     30978.7  Rx     18FDB300  8  6A D2 6A D2 FF FF FF FF 
   641)     30979.0  Rx     18FDB300  8  6A D2 6A D2 FF FF FF FF 
   642)     30979.4  Rx     18FDB300  8  6A D2 6A D2 FF FF FF FF 
   643)     30979.7  Rx     18FDB300  8  6A D2 6A D2 FF FF FF FF 
   644)     30980.0  Rx     18FDB300  8  6A D2 6A D2 FF FF FF FF 
   645)     30980.3  Rx     18FEFC00  8  D2 D2 FF FF FF FF FF FF 
   646)     30980.7  Rx     18FEFC00  8  D2 D2 FF FF FF FF FF FF 
   647)     30981.0  Rx     18FEA600  8  69 D2 9A D6 FF FF FF FF 
   648)     30981.3  Rx     18FEA600  8  69 D2 9A D6 FF FF FF FF 
   649)     30981.6  Rx     18FEA600  8  69 D2 9A D6 FF FF FF FF 
   650)     30981.9  Rx     18FEA600  8  69 D2 9A D6 FF FF FF FF 
   651)     30982.2  Rx     18FEA600  8  69 D2 9A D6 FF FF FF FF 
   652)     30982.5  Rx     18FEA600  8  69 D2 9A D6 FF FF FF FF 
   653)     30982.9  Rx     18FEA600  8  69 D2 9A D6 FF FF FF FF 
   654)     30983.2  Rx     18FEA600  8  69 D2 9A D6 FF FF FF FF 
   655)     30983.5  Rx     18FEF200  8  69 D2 6A D2 6A D2 FF FF 
   656)     30983.7  Rx     18FEF200  8  69 D2 6A D2 6A D2 FF FF 
   657)     30984.0  Rx     18FEF200  8  69 D2 6A D2 6A D2 FF FF 
   658)     30984.3  Rx     18FEF200  8  69 D2 6A D2 6A D2 FF FF 
   659)     30984.6  Rx     18FEF200  8  69 D2 6A D2 6A D2 FF FF 
   660)     30984.9  Rx     18FEF200  8  69 D2 6A D2 6A D2 FF FF 
   661)     30985.3  Rx     18FEF200  8  69 D2 6A D2 6A D2 FF FF 
   662)     30985.6  Rx     18FEF200  8  69 D2 6A D2 6A D2 FF FF 
   663)     30985.9  Rx     18FEF200  8  69 D2 6A D2 6A D2 FF FF 
   664)     30986.2  Rx     0CF00200  8  FF D2 69 FF FF FF FF FF 
   665)     30986.5  Rx     0CF00200  8  FF D2 69 FF FF FF FF FF 
   666)     30986.8  Rx     0CF00200  8  FF D2 69 FF FF FF FF FF 
   667)     30987.2  Rx     0CF00200  8  FF D2 69 FF FF FF FF FF 
   668)     30987.5  Rx     0CF00200  8  FF D2 69 FF FF FF FF FF 
   669)     30987.8  Rx     0CF00200  8  FF D2 69 FF FF FF FF FF 
   670)     30988.1  Rx     0CF00200  8  FF D2 69 FF FF FF FF FF 
   671)     30988.4  Rx     18FEEF00  8  D2 FF FF D2 FF FF FF FF 
   672)     30988.7  Rx     18FEEF00  8  D2 FF FF D2 FF FF FF FF 
   673)     30989.0  Rx     18FEEF00  8  D2 FF FF D2 FF FF FF FF 
   674)     30989.4  Rx     18FEEF00  8  D2 FF FF D2 FF FF FF FF 
   675)     30989.7  Rx     18FEEF00  8  D2 FF FF D2 FF FF FF FF 
   676)     30990.0  Rx     18FEEF00  8  D2 FF FF D2 FF FF FF FF 
   677)     30990.3  Rx     18FEEF00  8  D2 FF FF D2 FF FF FF FF 
   678)     30990.6  Rx     18FEEF00  8  D2 FF FF D2 FF FF FF FF 
   679)     30991.0  Rx     18FEEF00  8  D2 FF FF D2 FF FF FF FF 
   680)     30991.3  Rx     18FEEF00  8  D2 FF FF D2 FF FF FF FF 
   681)     30991.6  Rx     0CF00503  8  FF FF FF D2 FF FF FF FF 
   682)     30991.9  Rx     0CF00503  8  FF FF FF D2 FF FF FF FF 
   683)     30992.2  Rx     0CF00503  8  FF FF FF D2 FF FF FF FF 
   684)     30992.5  Rx     0CF00503  8  FF FF FF D2 FF FF FF FF 
   685)     30992.8  Rx     0CF00503  8  FF FF FF D2 FF FF FF FF 
   686)     30993.2  Rx     0CF00503  8  FF FF FF D2 FF FF FF FF 
   687)     30993.5  Rx     0CF00503  8  FF FF FF D2 FF FF FF FF 
   688)     30993.8  Rx     0CF00503  8  FF FF FF D2 FF FF FF FF 
   689)     30994.1  Rx     0CF00503  8  FF FF FF D2 FF FF FF FF 
   690)     30994.5  Rx     0CF00000  8  FF 69 FF FF FF FF FF FF 
   691)     30994.8  Rx     0CF00000  8  FF 69 FF FF FF FF FF FF 
   692)     30995.1  Rx     0CF00000  8  FF 69 FF FF FF FF FF FF 
   693)     30995.4  Rx     0CF00000  8  FF 69 FF FF FF FF FF FF 
   694)     30995.7  Rx     0CF00000  8  FF 69 FF FF FF FF FF FF 
   695)     30996.0  Rx     0CF00000  8  FF 69 FF FF FF FF FF FF 
   696)     30996.4  Rx     0CF00000  8  FF 69 FF FF FF FF FF FF 
   697)     30996.7  Rx     0CF00000  8  FF 69 FF FF FF FF FF FF 
   698)     30997.0  Rx     0CF00000  8  FF 69 FF FF FF FF FF FF 
   699)     30997.5  Rx     18FEF500  8  D2 EA D2 EA D2 D2 EA D2 
   700)     30997.8  Rx     18FEF500  8  D2 EA D2 EA D2 D2 EA D2 
   701)     30998.1  Rx     18FEBD00  8  D2 FF EA D2 FF FF FF FF 
   702)     30998.4  Rx     18FEBD00  8  D2 FF EA D2 FF FF FF FF 
   703)     30998.8  Rx     18FEBD00  8  D2 FF EA D2 FF FF FF FF 
   704)     30999.1  Rx     18FEBD00  8  D2 FF EA D2 FF FF FF FF 
   705)     30999.4  Rx     18FEBD00  8  D2 FF EA D2 FF FF FF FF 
   706)     30999.7  Rx     18FEBD00  8  D2 FF EA D2 FF FF FF FF 
   707)     31000.0  Rx     18FEBD00  8  D2 FF EA D2 FF FF FF FF 
   708)     31000.6  Rx     18FEE600  8  C9 32 13 0A 6B D2 FF FF 
   709)     31000.9  Rx     18FEA600  8  EA D2 1D D7 FF FF FF FF 
   710)     31001.2  Rx     18FEA600  8  EA D2 1D D7 FF FF FF FF 
   711)     31001.5  Rx     18FEA600  8  EA D2 1D D7 FF FF FF FF 
   712)     31001.8  Rx     18FEA600  8  EA D2 1D D7 FF FF FF FF 
   713)     31002.1  Rx     18FEA600  8  EA D2 1D D7 FF FF FF FF 
   714)     31002.4  Rx     18FEA600  8  EA D2 1D D7 FF FF FF FF 
   715)     31002.8  Rx     18FEA600  8  EA D2 1D D7 FF FF FF FF 
   716)     31003.1  Rx     18FEA600  8  EA D2 1D D7 FF FF FF FF 
   717)     31005.8  Rx     0CF00400  8  FD D3 D3 6A D3 FF FF D3 
   718)     31006.1  Rx     0CF00200  8  FF D3 69 FF FF FF FF FF 
   719)     31006.4  Rx     0CF00200  8  FF D3 69 FF FF FF FF FF 
   720)     31006.8  Rx     0CF00200  8  FF D3 69 FF FF FF FF FF 
   721)     31007.1  Rx     0CF00200  8  FF D3 69 FF FF FF FF FF 
   722)     31007.4  Rx     0CF00200  8  FF D3 69 FF FF FF FF FF 
   723)     31007.7  Rx     0CF00200  8  FF D3 69 FF FF FF FF FF 
   724)     31008.1  Rx     0CF00200  8  FF D3 69 FF FF FF FF FF 
   725)     31008.4  Rx     18FEF600  8  FF D3 FF FF FF FF FF FF 
   726)     31008.7  Rx     0CF00900  8  66 D3 FF 51 D3 6D D3 D3 
   727)     31009.0  Rx     0CF00900  8  66 D3 FF 51 D3 6D D3 D3 
   728)     31009.3  Rx     0CF00900  8  66 D3 FF 51 D3 6D D3 D3 
   729)     31009.6  Rx     0CF00900  8  66 D3 FF 51 D3 6D D3 D3 
   730)     31009.9  Rx     0CF00900  8  66 D3 FF 51 D3 6D D3 D3 
   731)     31010.2  Rx     0CF00900  8  66 D3 FF 51 D3 6D D3 D3 
   732)     31010.5  Rx     0CF00900  8  66 D3 FF 51 D3 6D D3 D3 
   733)     31010.8  Rx     0CF00900  8  66 D3 FF 51 D3 6D D3 D3 
   734)     31011.1  Rx     0CF00900  8  66 D3 FF 51 D3 6D D3 D3 
   735)     31011.4  Rx     18FEF803  8  FF FF FF D3 6B D3 FF FF 
   736)     31011.7  Rx     18F0010B  8  FF D3 FF FF FF FF FF FF 
   737)     31012.1  Rx     18F0010B  8  FF D3 FF FF FF FF FF FF 
   738)     31012.4  Rx     18F0010B  8  FF D3 FF FF FF FF FF FF 
   739)     31012.7  Rx     18F0010B  8  FF D3 FF FF FF FF FF FF 
   740)     31013.0  Rx     18F0010B  8  FF D3 FF FF FF FF FF FF 
   741)     31013.4  Rx     18F0010B  8  FF D3 FF FF FF FF FF FF 
   742)     31013.7  Rx     18F0010B  8  FF D3 FF FF FF FF FF FF 
   743)     31014.0  Rx     18F0010B  8  FF D3 FF FF FF FF FF FF 
   744)     31014.3  Rx     18F0010B  8  FF D3 FF FF FF FF FF FF 
   745)     31014.6  Rx     18F02300  8  6A D3 FF FF FF FF FF FF 
   746)     31014.9  Rx     18F02300  8  6A D3 FF FF FF FF FF FF 
   747)     31015.2  Rx     18F02300  8  6A D3 FF FF FF FF FF FF 
   748)     31015.6  Rx     18F02300  8  6A D3 FF FF FF FF FF FF 
   749)     31015.9  Rx     18F02300  8  6A D3 FF FF FF FF FF FF 
   750)     31016.2  Rx     18F02300  8  6A D3 FF FF FF FF FF FF 
   751)     31016.5  Rx     18F02300  8  6A D3 FF FF FF FF FF FF 
   752)     31016.8  Rx     18F02300  8  6A D3 FF FF FF FF FF FF 
   753)     31017.2  Rx     18F02300  8  6A D3 FF FF FF FF FF FF 
   754)     31017.5  Rx     18FEF700  8  D3 FF 6A D3 6A D3 FF FF 
   755)     31017.8  Rx     18FEBD00  8  D3 FF 6A D3 FF FF FF FF 
   756)     31018.1  Rx     18FEBD00  8  D3 FF 6A D3 FF FF FF FF 
   757)     31018.4  Rx     18FEBD00  8  D3 FF 6A D3 FF FF FF FF 
   758)     31018.8  Rx     18FEBD00  8  D3 FF 6A D3 FF FF FF FF 
   759)     31019.1  Rx     18FEBD00  8  D3 FF 6A D3 FF FF FF FF 
   760)     31019.4  Rx     18FEBD00  8  D3 FF 6A D3 FF FF FF FF 
   761)     31019.7  Rx     18FEBD00  8  D3 FF 6A D3 FF FF FF FF 
   762)     31020.0  Rx     18FEBD00  8  D3 FF 6A D3 FF FF FF FF 
   763)     31020.4  Rx     18FEBD00  8  D3 FF 6A D3 FF FF FF FF 
   764)     31020.7  Rx     18FEA600  8  6A D3 A0 D7 FF FF FF FF 
   765)     31021.0  Rx     18FEA600  8  6A D3 A0 D7 FF FF FF FF 
   766)     31021.3  Rx     18FEA600  8  6A D3 A0 D7 FF FF FF FF 
   767)     31021.6  Rx     18FEA600  8  6A D3 A0 D7 FF FF FF FF 
   768)     31021.9  Rx     18FEA600  8  6A D3 A0 D7 FF FF FF FF 
   769)     31022.2  Rx     18FEA600  8  6A D3 A0 D7 FF FF FF FF 
   770)     31022.5  Rx     18FEA600  8  6A D3 A0 D7 FF FF FF FF 
   771)     31022.8  Rx     18FEA600  8  6A D3 A0 D7 FF FF FF FF 
   772)     31023.2  Rx     18FEA600  8  6A D3 A0 D7 FF FF FF FF 
   773)     31023.5  Rx     18FEA600  8  6A D3 A0 D7 FF FF FF FF 
   774)     31023.8  Rx     18FEA600  8  6A D3 A0 D7 FF FF FF FF 
   775)     31024.1  Rx     18FEA600  8  6A D3 A0 D7 FF FF FF FF 
   776)     31024.4  Rx     18FEA600  8  6A D3 A0 D7 FF FF FF FF 
   777)     31024.7  Rx     18FEA600  8  6A D3 A0 D7 FF FF FF FF 
   778)     31025.0  Rx     18FEA600  8  6A D3 A0 D7 FF FF FF FF 
   779)     31025.3  Rx     18FEA600  8  6A D3 A0 D7 FF FF FF FF 
   780)     31025.6  Rx     18FEA600  8  6A D3 A0 D7 FF FF FF FF 
   781)     31026.0  Rx     18FEA600  8  6A D3 A0 D7 FF FF FF FF 
   782)     31026.3  Rx     18FEA600  8  6A D3 A0 D7 FF FF FF FF 
   783)     31026.6  Rx     18FEA600  8  6A D3 A0 D7 FF FF FF FF 
   784)     31026.9  Rx     18FEA600  8  6A D3 A0 D7 FF FF FF FF 
   785)     31027.2  Rx     18FEA600  8  6A D3 A0 D7 FF FF FF FF 
   786)     31027.5  Rx     18FEA600  8  6A D3 A0 D7 FF FF FF FF 
   787)     31027.9  Rx     18FEA600  8  6A D3 A0 D7 FF FF FF FF 
   788)     31028.2  Rx     18FEA600  8  6A D3 A0 D7 FF FF FF FF 
   789)     31028.5  Rx     18FEA600  8  6A D3 A0 D7 FF FF FF FF 
   790)     31028.8  Rx     18FEA600  8  6A D3 A0 D7 FF FF FF FF 
   791)     31029.1  Rx     18FEA600  8  6A D3 A0 D7 FF FF FF FF 
   792)     31029.5  Rx     0CF00200  8  FF D3 6A FF FF FF FF FF 
   793)     31029.8  Rx     0CF00200  8  FF D3 6A FF FF FF FF FF 
   794)     31030.1  Rx     0CF00200  8  FF D3 6A FF FF FF FF FF 
   795)     31030.5  Rx     0CF00200  8  FF D3 6A FF FF FF FF FF 
   796)     31030.8  Rx     0CF00200  8  FF D3 6A FF FF FF FF FF 
   797)     31031.1  Rx     0CF00200  8  FF D3 6A FF FF FF FF FF 
   798)     31031.4  Rx     0CF00200  8  FF D3 6A FF FF FF FF FF 
   799)     31031.7  Rx     0CF00200  8  FF D3 6A FF FF FF FF FF 
   800)     31032.0  Rx     0CF00200  8  FF D3 6A FF FF FF FF FF 
   801)     31032.3  Rx     0CF00200  8  FF D3 6A FF FF FF FF FF 
   802)     31032.7  Rx     0CF00900  8  ED D3 FF D8 D3 F4 D3 D3 
   803)     31033.0  Rx     0CF00503  8  FF FF FF D3 FF FF FF FF 
   804)     31033.3  Rx     0CF00503  8  FF FF FF D3 FF FF FF FF 
   805)     31033.6  Rx     0CF00503  8  FF FF FF D3 FF FF FF FF 
   806)     31034.0  Rx     0CF00503  8  FF FF FF D3 FF FF FF FF 
   807)     31034.3  Rx     0CF00503  8  FF FF FF D3 FF FF FF FF 
   808)     31034.6  Rx     0CF00503  8  FF FF FF D3 FF FF FF FF 
   809)     31034.9  Rx     0CF00503  8  FF FF FF D3 FF FF FF FF 
   810)     31035.2  Rx     0CF00503  8  FF FF FF D3 FF FF FF FF 
   811)     31035.5  Rx     18F0010B  8  FF D3 FF FF FF FF FF FF 
   812)     31035.8  Rx     0CF00000  8  FF 6A FF FF FF FF FF FF 
   813)     31036.2  Rx     0CF00000  8  FF 6A FF FF FF FF FF FF 
   814)     31036.5  Rx     0CF00000  8  FF 6A FF FF FF FF FF FF 
   815)     31036.8  Rx     0CF00000  8  FF 6A FF FF FF FF FF FF 
   816)     31037.1  Rx     0CF00000  8  FF 6A FF FF FF FF FF FF 
   817)     31037.5  Rx     0CF00000  8  FF 6A FF FF FF FF FF FF 
   818)     31037.8  Rx     0CF00000  8  FF 6A FF FF FF FF FF FF 
   819)     31038.1  Rx     0CF00000  8  FF 6A FF FF FF FF FF FF 
   820)     31038.4  Rx     0CF00000  8  FF 6A FF FF FF FF FF FF 
   821)     31038.7  Rx     18FDB300  8  F2 D3 F2 D3 FF FF FF FF 
   822)     31039.0  Rx     18FDB300  8  F2 D3 F2 D3 FF FF FF FF 
   823)     31039.3  Rx     18FDB300  8  F2 D3 F2 D3 FF FF FF FF 
   824)     31039.6  Rx     18FDB300  8  F2 D3 F2 D3 FF FF FF FF 
   825)     31040.0  Rx     18FDB300  8  F2 D3 F2 D3 FF FF FF FF 
   826)     31040.3  Rx     18FDB300  8  F2 D3 F2 D3 FF FF FF FF 
   827)     31040.6  Rx     18FDB300  8  F2 D3 F2 D3 FF FF FF FF 
   828)     31040.9  Rx     18FDB300  8  F2 D3 F2 D3 FF FF FF FF 
   829)     31041.2  Rx     18FDB300  8  F2 D3 F2 D3 FF FF FF FF 
   830)     31041.6  Rx     18FEBD00  8  D3 FF F1 D3 FF FF FF FF 
   831)     31041.9  Rx     18FEBD00  8  D3 FF F1 D3 FF FF FF FF 
   832)     31042.2  Rx     18FEBD00  8  D3 FF F1 D3 FF FF FF FF 
   833)     31042.5  Rx     18FEBD00  8  D3 FF F1 D3 FF FF FF FF 
   834)     31042.8  Rx     18FEBD00  8  D3 FF F1 D3 FF FF FF FF 
   835)     31043.1  Rx     18FEBD00  8  D3 FF F1 D3 FF FF FF FF 
   836)     31043.4  Rx     18FEBD00  8  D3 FF F1 D3 FF FF FF FF 
   837)     31043.7  Rx     18FEBD00  8  D3 FF F1 D3 FF FF FF FF 
   838)     31044.1  Rx     18FEBD00  8  D3 FF F1 D3 FF FF FF FF 
   839)     31044.4  Rx     18FEBD00  8  D3 FF F1 D3 FF FF FF FF 
   840)     31044.7  Rx     18FEFF00  8  FF FF FF FF FF FF FF FF 
   841)     31045.0  Rx     18FEF200  8  F1 D3 F2 D3 F2 D3 FF FF 
   842)     31045.3  Rx     18FEF200  8  F1 D3 F2 D3 F2 D3 FF FF 
   843)     31045.6  Rx     18FEF200  8  F1 D3 F2 D3 F2 D3 FF FF 
   844)     31046.0  Rx     18FEF200  8  F1 D3 F2 D3 F2 D3 FF FF 
   845)     31046.3  Rx     18FEF200  8  F1 D3 F2 D3 F2 D3 FF FF 
   846)     31046.6  Rx     18FEF200  8  F1 D3 F2 D3 F2 D3 FF FF 
   847)     31046.9  Rx     18FEF200  8  F1 D3 F2 D3 F2 D3 FF FF 
   848)     31047.2  Rx     18FEF200  8  F1 D3 F2 D3 F2 D3 FF FF 
   849)     31047.5  Rx     0CF00400  8  FD D4 D4 71 D4 FF FF D4 
   850)     31047.8  Rx     0CF00400  8  FD D4 D4 71 D4 FF FF D4 
   851)     31048.1  Rx     0CF00400  8  FD D4 D4 71 D4 FF FF D4 
   852)     31048.4  Rx     0CF00400  8  FD D4 D4 71 D4 FF FF D4 
   853)     31048.7  Rx     0CF00400  8  FD D4 D4 71 D4 FF FF D4 
   854)     31049.0  Rx     0CF00400  8  FD D4 D4 71 D4 FF FF D4 
   855)     31049.3  Rx     0CF00400  8  FD D4 D4 71 D4 FF FF D4 
   856)     31049.6  Rx     18FEEE00  8  D4 72 D4 FF FF FF FF FF 
   857)     31050.0  Rx     18FEEE00  8  D4 72 D4 FF FF FF FF FF 
   858)     31050.3  Rx     18FEEE00  8  D4 72 D4 FF FF FF FF FF 
   859)     31050.6  Rx     18FEEE00  8  D4 72 D4 FF FF FF FF FF 
   860)     31050.9  Rx     18FEEE00  8  D4 72 D4 FF FF FF FF FF 
   861)     31051.2  Rx     18FEEE00  8  D4 72 D4 FF FF FF FF FF 
   862)     31051.5  Rx     18FEEE00  8  D4 72 D4 FF FF FF FF FF 
   863)     31051.8  Rx     18FEEE00  8  D4 72 D4 FF FF FF FF FF 
   864)     31052.1  Rx     18FEEE00  8  D4 72 D4 FF FF FF FF FF 
   865)     31052.5  Rx     18FEEE00  8  D4 72 D4 FF FF FF FF FF 
   866)     31052.8  Rx     0CF00503  8  FF FF FF D4 FF FF FF FF 
   867)     31053.1  Rx     0CF00503  8  FF FF FF D4 FF FF FF FF 
   868)     31053.4  Rx     0CF00503  8  FF FF FF D4 FF FF FF FF 
   869)     31053.7  Rx     0CF00503  8  FF FF FF D4 FF FF FF FF 
   870)     31054.1  Rx     0CF00503  8  FF FF FF D4 FF FF FF FF 
   871)     31054.4  Rx     0CF00503  8  FF FF FF D4 FF FF FF FF 
   872)     31054.7  Rx     0CF00503  8  FF FF FF D4 FF FF FF FF 
   873)     31055.0  Rx     0CF00503  8  FF FF FF D4 FF FF FF FF 
   874)     31055.3  Rx     0CF00503  8  FF FF FF D4 FF FF FF FF 
   875)     31055.6  Rx     18FEFA0B  8  D4 FF FF FF FF FF FF FF 
   876)     31055.9  Rx     0CF00000  8  FF 6A FF FF FF FF FF FF 
   877)     31056.3  Rx     0CF00000  8  FF 6A FF FF FF FF FF FF 
   878)     31056.6  Rx     0CF00000  8  FF 6A FF FF FF FF FF FF 
   879)     31056.9  Rx     0CF00000  8  FF 6A FF FF FF FF FF FF 
   880)     31057.2  Rx     0CF00000  8  FF 6A FF FF FF FF FF FF 
   881)     31057.6  Rx     0CF00000  8  FF 6A FF FF FF FF FF FF 
   882)     31057.9  Rx     0CF00000  8  FF 6A FF FF FF FF FF FF 
   883)     31058.2  Rx     0CF00000  8  FF 6A FF FF FF FF FF FF 
   884)     31058.6  Rx     18FDB300  8  72 D4 72 D4 FF FF FF FF 
   885)     31058.9  Rx     18FDB300  8  72 D4 72 D4 FF FF FF FF 
   886)     31059.2  Rx     18FDB300  8  72 D4 72 D4 FF FF FF FF 
   887)     31059.5  Rx     18FDB300  8  72 D4 72 D4 FF FF FF FF 
   888)     31059.8  Rx     18FDB300  8  72 D4 72 D4 FF FF FF FF 
   889)     31060.1  Rx     18FDB300  8  72 D4 72 D4 FF FF FF FF 
   890)     31060.5  Rx     18FDB300  8  72 D4 72 D4 FF FF FF FF 
   891)     31060.8  Rx     18FDB300  8  72 D4 72 D4 FF FF FF FF 
   892)     31061.1  Rx     18FDB300  8  72 D4 72 D4 FF FF FF FF 
   893)     31061.4  Rx     18FDB300  8  72 D4 72 D4 FF FF FF FF 
   894)     31061.7  Rx     18FEFC00  8  D4 D4 FF FF FF FF FF FF 
   895)     31062.0  Rx     18FEE600  8  CA 32 13 0A 6C D4 FF FF 
   896)     31062.3  Rx     18FEA600  8  71 D4 AD D8 FF FF FF FF 
   897)     31062.6  Rx     18FEA600  8  71 D4 AD D8 FF FF FF FF 
   898)     31062.9  Rx     18FEA600  8  71 D4 AD D8 FF FF FF FF 
   899)     31063.2  Rx     18FEA600  8  71 D4 AD D8 FF FF FF FF 
   900)     31063.5  Rx     18FEA600  8  71 D4 AD D8 FF FF FF FF 
   901)     31063.8  Rx     18FEA600  8  71 D4 AD D8 FF FF FF FF 
   902)     31064.2  Rx     18FEA600  8  71 D4 AD D8 FF FF FF FF 
   903)     31064.5  Rx     18FEA600  8  71 D4 AD D8 FF FF FF FF 
   904)     31064.8  Rx     18FEF200  8  71 D4 72 D4 72 D4 FF FF 
   905)     31065.1  Rx     18FEF200  8  71 D4 72 D4 72 D4 FF FF 
   906)     31065.4  Rx     18FEF200  8  71 D4 72 D4 72 D4 FF FF 
   907)     31065.7  Rx     18FEF200  8  71 D4 72 D4 72 D4 FF FF 
   908)     31066.0  Rx     18FEF200  8  71 D4 72 D4 72 D4 FF FF 
   909)     31066.3  Rx     18FEF200  8  71 D4 72 D4 72 D4 FF FF 
   910)     31066.6  Rx     18FEF200  8  71 D4 72 D4 72 D4 FF FF 
   911)     31066.9  Rx     18FEF200  8  71 D4 72 D4 72 D4 FF FF 
   912)     31067.2  Rx     0CF00400  8  FD D4 D4 F2 D4 FF FF D4 
   913)     31067.5  Rx     0CF00200  8  FF D4 6A FF FF FF FF FF 
   914)     31067.8  Rx     0CF00200  8  FF D4 6A FF FF FF FF FF 
   915)     31068.1  Rx     0CF00200  8  FF D4 6A FF FF FF FF FF 
   916)     31068.5  Rx     0CF00200  8  FF D4 6A FF FF FF FF FF 
   917)     31068.8  Rx     0CF00200  8  FF D4 6A FF FF FF FF FF 
   918)     31069.1  Rx     0CF00200  8  FF D4 6A FF FF FF FF FF 
   919)     31069.4  Rx     0CF00200  8  FF D4 6A FF FF FF FF FF 
   920)     31069.7  Rx     18FEEF00  8  D4 FF FF D4 FF FF FF FF 
   921)     31070.1  Rx     18FEEF00  8  D4 FF FF D4 FF FF FF FF 
   922)     31070.4  Rx     18FEEF00  8  D4 FF FF D4 FF FF FF FF 
   923)     31070.7  Rx     18FEEF00  8  D4 FF FF D4 FF FF FF FF 
   924)     31071.0  Rx     18FEEF00  8  D4 FF FF D4 FF FF FF FF 
   925)     31071.3  Rx     18FEEF00  8  D4 FF FF D4 FF FF FF FF 
   926)     31071.6  Rx     18FEEF00  8  D4 FF FF D4 FF FF FF FF 
   927)     31071.9  Rx     18FEEF00  8  D4 FF FF D4 FF FF FF FF 
   928)     31072.2  Rx     18FEEF00  8  D4 FF FF D4 FF FF FF FF 
   929)     31072.6  Rx     0CF00503  8  FF FF FF D4 FF FF FF FF 
   930)     31072.9  Rx     0CF00503  8  FF FF FF D4 FF FF FF FF 
   931)     31073.2  Rx     0CF00503  8  FF FF FF D4 FF FF FF FF 
   932)     31073.6  Rx     0CF00503  8  FF FF FF D4 FF FF FF FF 
   933)     31073.9  Rx     0CF00503  8  FF FF FF D4 FF FF FF FF 
   934)     31074.2  Rx     0CF00503  8  FF FF FF D4 FF FF FF FF 
   935)     31074.5  Rx     0CF00503  8  FF FF FF D4 FF FF FF FF 
   936)     31074.8  Rx     0CF00503  8  FF FF FF D4 FF FF FF FF 
   937)     31075.1  Rx     0CF00503  8  FF FF FF D4 FF FF FF FF 
   938)     31075.4  Rx     0CF00503  8  FF FF FF D4 FF FF FF FF 
   939)     31075.8  Rx     0CF00000  8  FF 6A FF FF FF FF FF FF 
   940)     31076.1  Rx     0CF00000  8  FF 6A FF FF FF FF FF FF 
   941)     31076.4  Rx     0CF00000  8  FF 6A FF FF FF FF FF FF 
   942)     31076.7  Rx     0CF00000  8  FF 6A FF FF FF FF FF FF 
   943)     31077.1  Rx     0CF00000  8  FF 6A FF FF FF FF FF FF 
   944)     31077.4  Rx     0CF00000  8  FF 6A FF FF FF FF FF FF 
   945)     31077.7  Rx     0CF00000  8  FF 6A FF FF FF FF FF FF 
   946)     31078.0  Rx     0CF00000  8  FF 6A FF FF FF FF FF FF 
   947)     31078.3  Rx     0CF00000  8  FF 6A FF FF FF FF FF FF 
   948)     31078.8  Rx     18FEF500  8  D4 F3 D4 F3 D4 D4 F3 D4 
   949)     31079.1  Rx     18FEF500  8  D4 F3 D4 F3 D4 D4 F3 D4 
   950)     31079.4  Rx     18FEBD00  8  D4 FF F2 D4 FF FF FF FF 
   951)     31079.7  Rx     18FEBD00  8  D4 FF F2 D4 FF FF FF FF 
   952)     31080.0  Rx     18FEBD00  8  D4 FF F2 D4 FF FF FF FF 
   953)     31080.3  Rx     18FEBD00  8  D4 FF F2 D4 FF FF FF FF 
   954)     31080.6  Rx     18FEBD00  8  D4 FF F2 D4 FF FF FF FF 
   955)     31081.0  Rx     18FEBD00  8  D4 FF F2 D4 FF FF FF FF 
   956)     31081.3  Rx     18FEBD00  8  D4 FF F2 D4 FF FF FF FF 
   957)     31081.8  Rx     18FEE600  8  CB 32 14 0A 6C D4 FF FF 
   958)     31082.2  Rx     18FEA600  8  F2 D4 30 D9 FF FF FF FF 
   959)     31082.5  Rx     18FEA600  8  F2 D4 30 D9 FF FF FF FF 
   960)     31082.8  Rx     18FEA600  8  F2 D4 30 D9 FF FF FF FF 
   961)     31083.1  Rx     18FEA600  8  F2 D4 30 D9 FF FF FF FF 
   962)     31083.4  Rx     18FEA600  8  F2 D4 30 D9 FF FF FF FF 
   963)     31083.7  Rx     18FEA600  8  F2 D4 30 D9 FF FF FF FF 
   964)     31084.0  Rx     18FEA600  8  F2 D4 30 D9 FF FF FF FF 
   965)     31084.3  Rx     18FEA600  8  F2 D4 30 D9 FF FF FF FF 
   966)     31087.0  Rx     0CF00400  8  FD D5 D5 72 D5 FF FF D5 
   967)     31087.4  Rx     0CF00200  8  FF D5 6A FF FF FF FF FF 
   968)     31087.7  Rx     0CF00200  8  FF D5 6A FF FF FF FF FF 
   969)     31088.0  Rx     0CF00200  8  FF D5 6A FF FF FF FF FF 
   970)     31088.3  Rx     0CF00200  8  FF D5 6A FF FF FF FF FF 
   971)     31088.6  Rx     0CF00200  8  FF D5 6A FF FF FF FF FF 
   972)     31089.0  Rx     0CF00200  8  FF D5 6A FF FF FF FF FF 
   973)     31089.3  Rx     0CF00200  8  FF D5 6A FF FF FF FF FF 
   974)     31089.6  Rx     0CF00200  8  FF D5 6A FF FF FF FF FF 
   975)     31089.9  Rx     18FEF100  8  FF 73 D5 FF FF FF FF FF 
   976)     31090.2  Rx     0CF00900  8  6F D5 FF 59 D5 76 D5 D5 
   977)     31090.5  Rx     0CF00900  8  6F D5 FF 59 D5 76 D5 D5 
   978)     31090.8  Rx     0CF00900  8  6F D5 FF 59 D5 76 D5 D5 
   979)     31091.1  Rx     0CF00900  8  6F D5 FF 59 D5 76 D5 D5 
   980)     31091.4  Rx     0CF00900  8  6F D5 FF 59 D5 76 D5 D5 
   981)     31091.7  Rx     0CF00900  8  6F D5 FF 59 D5 76 D5 D5 
   982)     31092.0  Rx     0CF00900  8  6F D5 FF 59 D5 76 D5 D5 
   983)     31092.3  Rx     0CF00900  8  6F D5 FF 59 D5 76 D5 D5 
   984)     31092.7  Rx     18FEF803  8  FF FF FF D5 73 D5 FF FF 
   985)     31093.0  Rx     18F0010B  8  FF D5 FF FF FF FF FF FF 
   986)     31093.3  Rx     18F0010B  8  FF D5 FF FF FF FF FF FF 
   987)     31093.7  Rx     18F0010B  8  FF D5 FF FF FF FF FF FF 
   988)     31094.0  Rx     18F0010B  8  FF D5 FF FF FF FF FF FF 
   989)     31094.3  Rx     18F0010B  8  FF D5 FF FF FF FF FF FF 
   990)     31094.6  Rx     18F0010B  8  FF D5 FF FF FF FF FF FF 
   991)     31094.9  Rx     18F0010B  8  FF D5 FF FF FF FF FF FF 
   992)     31095.2  Rx     18F0010B  8  FF D5 FF FF FF FF FF FF 
   993)     31095.5  Rx     18F0010B  8  FF D5 FF FF FF FF FF FF 
   994)     31095.9  Rx     18F02300  8  72 D5 FF FF FF FF FF FF 
   995)     31096.2  Rx     18F02300  8  72 D5 FF FF FF FF FF FF 
   996)     31096.5  Rx     18F02300  8  72 D5 FF FF FF FF FF FF 
   997)     31096.8  Rx     18F02300  8  72 D5 FF FF FF FF FF FF 
   998)     31097.1  Rx     18F02300  8  72 D5 FF FF FF FF FF FF 
   999)     31097.4  Rx     18F02300  8  72 D5 FF FF FF FF FF FF 
  1000)     31097.8  Rx     18F02300  8  72 D5 FF FF FF FF FF FF 
  1001)     31098.1  Rx     18F02300  8  72 D5 FF FF FF FF FF FF 
  1002)     31098.4  Rx     18F02300  8  72 D5 FF FF FF FF FF FF 
  1003)     31098.8  Rx     18FEF700  8  D5 FF 72 D5 72 D5 FF FF 
  1004)     31099.1  Rx     18FEBD00  8  D5 FF 72 D5 FF FF FF FF 
  1005)     31099.4  Rx     18FEBD00  8  D5 FF 72 D5 FF FF FF FF 
  1006)     31099.7  Rx     18FEBD00  8  D5 FF 72 D5 FF FF FF FF 
  1007)     31100.0  Rx     18FEBD00  8  D5 FF 72 D5 FF FF FF FF 
  1008)     31100.3  Rx     18FEBD00  8  D5 FF 72 D5 FF FF FF FF 
  1009)     31100.7  Rx     18FEBD00  8  D5 FF 72 D5 FF FF FF FF 
  1010)     31101.0  Rx     18FEBD00  8  D5 FF 72 D5 FF FF FF FF 
  1011)     31101.3  Rx     18FEBD00  8  D5 FF 72 D5 FF FF FF FF 
  1012)     31101.6  Rx     18FEBD00  8  D5 FF 72 D5 FF FF FF FF 
  1013)     31101.9  Rx     18FEA600  8  72 D5 B3 D9 FF FF FF FF 
  1014)     31102.2  Rx     18FEA600  8  72 D5 B3 D9 FF FF FF FF 
  1015)     31102.5  Rx     18FEA600  8  72 D5 B3 D9 FF FF FF FF 
  1016)     31102.8  Rx     18FEA600  8  72 D5 B3 D9 FF FF FF FF 
  1017)     31103.1  Rx     18FEA600  8  72 D5 B3 D9 FF FF FF FF 
  1018)     31103.4  Rx     18FEA600  8  72 D5 B3 D9 FF FF FF FF 
  1019)     31103.7  Rx     18FEA600  8  72 D5 B3 D9 FF FF FF FF 
  1020)     31104.0  Rx     18FEA600  8  72 D5 B3 D9 FF FF FF FF 
  1021)     31104.4  Rx     18FEA600  8  72 D5 B3 D9 FF FF FF FF 
  1022)     31104.7  Rx     18FEA600  8  72 D5 B3 D9 FF FF FF FF 
  1023)     31105.0  Rx     18FEA600  8  72 D5 B3 D9 FF FF FF FF 
  1024)     31105.3  Rx     18FEA600  8  72 D5 B3 D9 FF FF FF FF 
  1025)     31105.6  Rx     18FEA600  8  72 D5 B3 D9 FF FF FF FF 
  1026)     31105.9  Rx     18FEA600  8  72 D5 B3 D9 FF FF FF FF 
  1027)     31106.2  Rx     18FEA600  8  72 D5 B3 D9 FF FF FF FF 
  1028)     31106.5  Rx     18FEA600  8  72 D5 B3 D9 FF FF FF FF 
  1029)     31106.8  Rx     18FEA600  8  72 D5 B3 D9 FF FF FF FF 
  1030)     31107.1  Rx     18FEA600  8  72 D5 B3 D9 FF FF FF FF 
  1031)     31107.4  Rx     18FEA600  8  72 D5 B3 D9 FF FF FF FF 
  1032)     31107.7  Rx     18FEA600  8  72 D5 B3 D9 FF FF FF FF 
  1033)     31108.1  Rx     18FEA600  8  72 D5 B3 D9 FF FF FF FF 
  1034)     31108.4  Rx     18FEA600  8  72 D5 B3 D9 FF FF FF FF 
  1035)     31108.7  Rx     18FEA600  8  72 D5 B3 D9 FF FF FF FF 
  1036)     31109.0  Rx     18FEA600  8  72 D5 B3 D9 FF FF FF FF 
  1037)     31109.3  Rx     18FEA600  8  72 D5 B3 D9 FF FF FF FF 
  1038)     31109.6  Rx     18FEA600  8  72 D5 B3 D9 FF FF FF FF 
  1039)     31109.9  Rx     18FEA600  8  72 D5 B3 D9 FF FF FF FF 
  1040)     31110.2  Rx     18FEA600  8  72 D5 B3 D9 FF FF FF FF 
  1041)     31110.6  Rx     18FEA600  8  72 D5 B3 D9 FF FF FF FF 
  1042)     31110.9  Rx     0CF00200  8  FF D5 6B FF FF FF FF FF 
  1043)     31111.1  Rx     0CF00200  8  FF D5 6B FF FF FF FF FF 
  1044)     31111.5  Rx     0CF00200  8  FF D5 6B FF FF FF FF FF 
  1045)     31111.8  Rx     0CF00200  8  FF D5 6B FF FF FF FF FF 
  1046)     31112.1  Rx     0CF00200  8  FF D5 6B FF FF FF FF FF 
  1047)     31112.4  Rx     0CF00200  8  FF D5 6B FF FF FF FF FF 
  1048)     31112.8  Rx     0CF00200  8  FF D5 6B FF FF FF FF FF 
  1049)     31113.1  Rx     0CF00200  8  FF D5 6B FF FF FF FF FF 
  1050)     31113.4  Rx     0CF00200  8  FF D5 6B FF FF FF FF FF 
  1051)     31113.8  Rx     18FEF100  8  FF FA D5 FF FF FF FF FF 
  1052)     31114.1  Rx     0CF00503  8  FF FF FF D5 FF FF FF FF 
  1053)     31114.3  Rx     0CF00503  8  FF FF FF D5 FF FF FF FF 
  1054)     31114.7  Rx     0CF00503  8  FF FF FF D5 FF FF FF FF 
  1055)     31115.0  Rx     0CF00503  8  FF FF FF D5 FF FF FF FF 
  1056)     31115.3  Rx     0CF00503  8  FF FF FF D5 FF FF FF FF 
  1057)     31115.6  Rx     0CF00503  8  FF FF FF D5 FF FF FF FF 
  1058)     31116.0  Rx     0CF00503  8  FF FF FF D5 FF FF FF FF 
  1059)     31116.3  Rx     0CF00503  8  FF FF FF D5 FF FF FF FF 
  1060)     31116.6  Rx     0CF00503  8  FF FF FF D5 FF FF FF FF 
  1061)     31116.9  Rx     18F0010B  8  FF D5 FF FF FF FF FF FF 
  1062)     31117.2  Rx     0CF00000  8  FF 6B FF FF FF FF FF FF 
  1063)     31117.5  Rx     0CF00000  8  FF 6B FF FF FF FF FF FF 
  1064)     31117.8  Rx     0CF00000  8  FF 6B FF FF FF FF FF FF 
  1065)     31118.2  Rx     0CF00000  8  FF 6B FF FF FF FF FF FF 
  1066)     31118.5  Rx     0CF00000  8  FF 6B FF FF FF FF FF FF 
  1067)     31118.8  Rx     0CF00000  8  FF 6B FF FF FF FF FF FF 
  1068)     31119.1  Rx     0CF00000  8  FF 6B FF FF FF FF FF FF 
  1069)     31119.5  Rx     0CF00000  8  FF 6B FF FF FF FF FF FF 
  1070)     31119.8  Rx     18FE5600  8  D5 D5 FF FF FF FF FF FF 
  1071)     31120.1  Rx     18FDB300  8  FA D5 FA D5 FF FF FF FF 
  1072)     31120.5  Rx     18FDB300  8  FA D5 FA D5 FF FF FF FF 
  1073)     31120.7  Rx     18FDB300  8  FA D5 FA D5 FF FF FF FF 
  1074)     31121.1  Rx     18FDB300  8  FA D5 FA D5 FF FF FF FF 
  1075)     31121.4  Rx     18FDB300  8  FA D5 FA D5 FF FF FF FF 
  1076)     31121.7  Rx     18FDB300  8  FA D5 FA D5 FF FF FF FF 
  1077)     31122.0  Rx     18FDB300  8  FA D5 FA D5 FF FF FF FF 
  1078)     31122.4  Rx     18FDB300  8  FA D5 FA D5 FF FF FF FF 
  1079)     31122.7  Rx     18FDB300  8  FA D5 FA D5 FF FF FF FF 
  1080)     31123.0  Rx     18FEBD00  8  D5 FF F9 D5 FF FF FF FF 
  1081)     31123.3  Rx     18FEBD00  8  D5 FF F9 D5 FF FF FF FF 
  1082)     31123.6  Rx     18FEBD00  8  D5 FF F9 D5 FF FF FF FF 
  1083)     31123.9  Rx     18FEBD00  8  D5 FF F9 D5 FF FF FF FF 
  1084)     31124.2  Rx     18FEBD00  8  D5 FF F9 D5 FF FF FF FF 
  1085)     31124.5  Rx     18FEBD00  8  D5 FF F9 D5 FF FF FF FF 
  1086)     31124.8  Rx     18FEBD00  8  D5 FF F9 D5 FF FF FF FF 
  1087)     31125.2  Rx     18FEBD00  8  D5 FF F9 D5 FF FF FF FF 
  1088)     31125.5  Rx     18FEBD00  8  D5 FF F9 D5 FF FF FF FF 
  1089)     31125.8  Rx     18FEFF00  8  FF FF FF FF FF FF FF FF 
  1090)     31126.1  Rx     18FEF200  8  F9 D5 FA D5 FA D5 FF FF 
  1091)     31126.4  Rx     18FEF200  8  F9 D5 FA D5 FA D5 FF FF 
  1092)     31126.8  Rx     18FEF200  8  F9 D5 FA D5 FA D5 FF FF 
  1093)     31127.1  Rx     18FEF200  8  F9 D5 FA D5 FA D5 FF FF 
  1094)     31127.4  Rx     18FEF200  8  F9 D5 FA D5 FA D5 FF FF 
  1095)     31127.7  Rx     18FEF200  8  F9 D5 FA D5 FA D5 FF FF 
  1096)     31128.0  Rx     18FEF200  8  F9 D5 FA D5 FA D5 FF FF 
  1097)     31128.3  Rx     18FEF200  8  F9 D5 FA D5 FA D5 FF FF 
  1098)     31128.6  Rx     0CF00400  8  FD D6 D6 7A D6 FF FF D6 
  1099)     31128.9  Rx     0CF00400  8  FD D6 D6 7A D6 FF FF D6 
  1100)     31129.2  Rx     0CF00400  8  FD D6 D6 7A D6 FF FF D6 
  1101)     31129.5  Rx     0CF00400  8  FD D6 D6 7A D6 FF FF D6 
  1102)     31129.8  Rx     0CF00400  8  FD D6 D6 7A D6 FF FF D6 
  1103)     31130.1  Rx     0CF00400  8  FD D6 D6 7A D6 FF FF D6 
  1104)     31130.4  Rx     0CF00400  8  FD D6 D6 7A D6 FF FF D6 
  1105)     31130.8  Rx     18FEEE00  8  D6 7B D6 FF FF FF FF FF 
  1106)     31131.1  Rx     18FEEE00  8  D6 7B D6 FF FF FF FF FF 
  1107)     31131.5  Rx     18FEEE00  8  D6 7B D6 FF FF FF FF FF 
  1108)     31131.8  Rx     18FEEE00  8  D6 7B D6 FF FF FF FF FF 
  1109)     31132.1  Rx     18FEEE00  8  D6 7B D6 FF FF FF FF FF 
  1110)     31132.4  Rx     18FEEE00  8  D6 7B D6 FF FF FF FF FF 
  1111)     31132.7  Rx     18FEEE00  8  D6 7B D6 FF FF FF FF FF 
  1112)     31133.0  Rx     18FEEE00  8  D6 7B D6 FF FF FF FF FF 
  1113)     31133.3  Rx     18FEEE00  8  D6 7B D6 FF FF FF FF FF 
  1114)     31133.6  Rx     18FEEE00  8  D6 7B D6 FF FF FF FF FF 
  1115)     31133.9  Rx     0CF00900  8  76 D6 FF 60 D6 7D D6 D6 
  1116)     31134.3  Rx     0CF00503  8  FF FF FF D6 FF FF FF FF 
  1117)     31134.6  Rx     0CF00503  8  FF FF FF D6 FF FF FF FF 
  1118)     31134.9  Rx     0CF00503  8  FF FF FF D6 FF FF FF FF 
  1119)     31135.2  Rx     0CF00503  8  FF FF FF D6 FF FF FF FF 
  1120)     31135.6  Rx     0CF00503  8  FF FF FF D6 FF FF FF FF 
  1121)     31135.9  Rx     0CF00503  8  FF FF FF D6 FF FF FF FF 
  1122)     31136.2  Rx     0CF00503  8  FF FF FF D6 FF FF FF FF 
  1123)     31136.5  Rx     0CF00503  8  FF FF FF D6 FF FF FF FF 
  1124)     31136.8  Rx     18FEFA0B  8  D6 FF FF FF FF FF FF FF 
  1125)     31137.1  Rx     0CF00000  8  FF 6B FF FF FF FF FF FF 
  1126)     31137.5  Rx     0CF00000  8  FF 6B FF FF FF FF FF FF 
  1127)     31137.8  Rx     0CF00000  8  FF 6B FF FF FF FF FF FF 
  1128)     31138.1  Rx     0CF00000  8  FF 6B FF FF FF FF FF FF 
  1129)     31138.4  Rx     0CF00000  8  FF 6B FF FF FF FF FF FF 
  1130)     31138.8  Rx     0CF00000  8  FF 6B FF FF FF FF FF FF 
  1131)     31139.1  Rx     0CF00000  8  FF 6B FF FF FF FF FF FF 
  1132)     31139.4  Rx     0CF00000  8  FF 6B FF FF FF FF FF FF 
  1133)     31139.7  Rx     0CF00000  8  FF 6B FF FF FF FF FF FF 
  1134)     31140.0  Rx     18FDB300  8  7B D6 7B D6 FF FF FF FF 
  1135)     31140.3  Rx     18FDB300  8  7B D6 7B D6 FF FF FF FF 
  1136)     31140.6  Rx     18FDB300  8  7B D6 7B D6 FF FF FF FF 
  1137)     31140.9  Rx     18FDB300  8  7B D6 7B D6 FF FF FF FF 
  1138)     31141.3  Rx     18FDB300  8  7B D6 7B D6 FF FF FF FF 
  1139)     31141.6  Rx     18FDB300  8  7B D6 7B D6 FF FF FF FF 
  1140)     31141.9  Rx     18FDB300  8  7B D6 7B D6 FF FF FF FF 
  1141)     31142.2  Rx     18FDB300  8  7B D6 7B D6 FF FF FF FF 
  1142)     31142.5  Rx     18FDB300  8  7B D6 7B D6 FF FF FF FF 
  1143)     31142.9  Rx     18FEFC00  8  D6 D6 FF FF FF FF FF FF 
  1144)     31143.2  Rx     18FEFC00  8  D6 D6 FF FF FF FF FF FF 
  1145)     31143.5  Rx     18FEA600  8  7A D6 C0 DA FF FF FF FF 
  1146)     31143.8  Rx     18FEA600  8  7A D6 C0 DA FF FF FF FF 
  1147)     31144.1  Rx     18FEA600  8  7A D6 C0 DA FF FF FF FF 
  1148)     31144.5  Rx     18FEA600  8  7A D6 C0 DA FF FF FF FF 
  1149)     31144.8  Rx     18FEA600  8  7A D6 C0 DA FF FF FF FF 
  1150)     31145.1  Rx     18FEA600  8  7A D6 C0 DA FF FF FF FF 
  1151)     31145.4  Rx     18FEA600  8  7A D6 C0 DA FF FF FF FF 
  1152)     31145.7  Rx     18FEA600  8  7A D6 C0 DA FF FF FF FF 
  1153)     31146.0  Rx     18FEF200  8  7A D6 7B D6 7B D6 FF FF 
  1154)     31146.3  Rx     18FEF200  8  7A D6 7B D6 7B D6 FF FF 
  1155)     31146.6  Rx     18FEF200  8  7A D6 7B D6 7B D6 FF FF 
  1156)     31146.9  Rx     18FEF200  8  7A D6 7B D6 7B D6 FF FF 
  1157)     31147.2  Rx     18FEF200  8  7A D6 7B D6 7B D6 FF FF 
  1158)     31147.5  Rx     18FEF200  8  7A D6 7B D6 7B D6 FF FF 
  1159)     31147.8  Rx     18FEF200  8  7A D6 7B D6 7B D6 FF FF 
  1160)     31148.1  Rx     18FEF200  8  7A D6 7B D6 7B D6 FF FF 
  1161)     31148.4  Rx     18FEF200  8  7A D6 7B D6 7B D6 FF FF 
  1162)     31148.7  Rx     0CF00200  8  FF D6 6B FF FF FF FF FF 
  1163)     31149.1  Rx     0CF00200  8  FF D6 6B FF FF FF FF FF 
  1164)     31149.4  Rx     0CF00200  8  FF D6 6B FF FF FF FF FF 
  1165)     31149.7  Rx     0CF00200  8  FF D6 6B FF FF FF FF FF 
  1166)     31150.0  Rx     0CF00200  8  FF D6 6B FF FF FF FF FF 
  1167)     31150.3  Rx     0CF00200  8  FF D6 6B FF FF FF FF FF 
  1168)     31150.7  Rx     0CF00200  8  FF D6 6B FF FF FF FF FF 
  1169)     31151.0  Rx     18FEEF00  8  D6 FF FF D6 FF FF FF FF 
  1170)     31151.3  Rx     18FEEF00  8  D6 FF FF D6 FF FF FF FF 
  1171)     31151.6  Rx     18FEEF00  8  D6 FF FF D6 FF FF FF FF 
  1172)     31151.9  Rx     18FEEF00  8  D6 FF FF D6 FF FF FF FF 
  1173)     31152.2  Rx     18FEEF00  8  D6 FF FF D6 FF FF FF FF 
  1174)     31152.5  Rx     18FEEF00  8  D6 FF FF D6 FF FF FF FF 
  1175)     31152.9  Rx     18FEEF00  8  D6 FF FF D6 FF FF FF FF 
  1176)     31153.2  Rx     18FEEF00  8  D6 FF FF D6 FF FF FF FF 
  1177)     31153.5  Rx     18FEEF00  8  D6 FF FF D6 FF FF FF FF 
  1178)     31153.8  Rx     18FEEF00  8  D6 FF FF D6 FF FF FF FF 
  1179)     31154.1  Rx     0CF00503  8  FF FF FF D6 FF FF FF FF 
  1180)     31154.5  Rx     0CF00503  8  FF FF FF D6 FF FF FF FF 
  1181)     31154.8  Rx     0CF00503  8  FF FF FF D6 FF FF FF FF 
  1182)     31155.1  Rx     0CF00503  8  FF FF FF D6 FF FF FF FF 
  1183)     31155.4  Rx     0CF00503  8  FF FF FF D6 FF FF FF FF 
  1184)     31155.7  Rx     0CF00503  8  FF FF FF D6 FF FF FF FF 
  1185)     31156.0  Rx     0CF00503  8  FF FF FF D6 FF FF FF FF 
  1186)     31156.4  Rx     0CF00503  8  FF FF FF D6 FF FF FF FF 
  1187)     31156.7  Rx     0CF00503  8  FF FF FF D6 FF FF FF FF 
  1188)     31157.0  Rx     0CF00000  8  FF 6B FF FF FF FF FF FF 
  1189)     31157.3  Rx     0CF00000  8  FF 6B FF FF FF FF FF FF 
  1190)     31157.7  Rx     0CF00000  8  FF 6B FF FF FF FF FF FF 
  1191)     31158.0  Rx     0CF00000  8  FF 6B FF FF FF FF FF FF 
  1192)     31158.3  Rx     0CF00000  8  FF 6B FF FF FF FF FF FF 
  1193)     31158.6  Rx     0CF00000  8  FF 6B FF FF FF FF FF FF 
  1194)     31158.9  Rx     0CF00000  8  FF 6B FF FF FF FF FF FF 
  1195)     31159.2  Rx     0CF00000  8  FF 6B FF FF FF FF FF FF 
  1196)     31159.6  Rx     0CF00000  8  FF 6B FF FF FF FF FF FF 
  1197)     31160.0  Rx     18FEF500  8  D6 FB D6 FB D6 D6 FB D6 
  1198)     31160.3  Rx     18FEF500  8  D6 FB D6 FB D6 D6 FB D6 
  1199)     31160.7  Rx     18FEBD00  8  D6 FF FA D6 FF FF FF FF 
  1200)     31161.0  Rx     18FEBD00  8  D6 FF FA D6 FF FF FF FF 
  1201)     31161.3  Rx     18FEBD00  8  D6 FF FA D6 FF FF FF FF 
  1202)     31161.6  Rx     18FEBD00  8  D6 FF FA D6 FF FF FF FF 
  1203)     31161.9  Rx     18FEBD00  8  D6 FF FA D6 FF FF FF FF 
  1204)     31162.2  Rx     18FEBD00  8  D6 FF FA D6 FF FF FF FF 
  1205)     31162.6  Rx     18FEBD00  8  D6 FF FA D6 FF FF FF FF 
  1206)     31163.1  Rx     18FEE600  8  CD 33 14 0A 6D D6 FF FF 
  1207)     31163.5  Rx     18FEA600  8  FA D6 43 DB FF FF FF FF 
  1208)     31163.8  Rx     18FEA600  8  FA D6 43 DB FF FF FF FF 
  1209)     31164.1  Rx     18FEA600  8  FA D6 43 DB FF FF FF FF 
  1210)     31164.4  Rx     18FEA600  8  FA D6 43 DB FF FF FF FF 
  1211)     31164.7  Rx     18FEA600  8  FA D6 43 DB FF FF FF FF 
  1212)     31165.0  Rx     18FEA600  8  FA D6 43 DB FF FF FF FF 
  1213)     31165.3  Rx     18FEA600  8  FA D6 43 DB FF FF FF FF 
  1214)     31165.6  Rx     18FEA600  8  FA D6 43 DB FF FF FF FF 
  1215)     31168.4  Rx     0CF00400  8  FD D7 D7 7B D7 FF FF D7 
  1216)     31168.7  Rx     0CF00200  8  FF D7 6B FF FF FF FF FF 
  1217)     31169.0  Rx     0CF00200  8  FF D7 6B FF FF FF FF FF 
  1218)     31169.3  Rx     0CF00200  8  FF D7 6B FF FF FF FF FF 
  1219)     31169.6  Rx     0CF00200  8  FF D7 6B FF FF FF FF FF 
  1220)     31169.9  Rx     0CF00200  8  FF D7 6B FF FF FF FF FF 
  1221)     31170.3  Rx     0CF00200  8  FF D7 6B FF FF FF FF FF 
  1222)     31170.6  Rx     0CF00200  8  FF D7 6B FF FF FF FF FF 
  1223)     31170.9  Rx     18FEF600  8  FF D7 FF FF FF FF FF FF 
  1224)     31171.2  Rx     0CF00900  8  77 D7 FF 61 D7 7E D7 D7 
  1225)     31171.5  Rx     0CF00900  8  77 D7 FF 61 D7 7E D7 D7 
  1226)     31171.9  Rx     0CF00900  8  77 D7 FF 61 D7 7E D7 D7 
  1227)     31172.2  Rx     0CF00900  8  77 D7 FF 61 D7 7E D7 D7 
  1228)     31172.5  Rx     0CF00900  8  77 D7 FF 61 D7 7E D7 D7 
  1229)     31172.8  Rx     0CF00900  8  77 D7 FF 61 D7 7E D7 D7 
  1230)     31173.1  Rx     0CF00900  8  77 D7 FF 61 D7 7E D7 D7 
  1231)     31173.4  Rx     0CF00900  8  77 D7 FF 61 D7 7E D7 D7 
  1232)     31173.7  Rx     0CF00900  8  77 D7 FF 61 D7 7E D7 D7 
  1233)     31174.0  Rx     18FEF803  8  FF FF FF D7 7C D7 FF FF 
  1234)     31174.3  Rx     18F0010B  8  FF D7 FF FF FF FF FF FF 
  1235)     31174.6  Rx     18F0010B  8  FF D7 FF FF FF FF FF FF 
  1236)     31175.0  Rx     18F0010B  8  FF D7 FF FF FF FF FF FF 
  1237)     31175.3  Rx     18F0010B  8  FF D7 FF FF FF FF FF FF 
  1238)     31175.6  Rx     18F0010B  8  FF D7 FF FF FF FF FF FF 
  1239)     31175.9  Rx     18F0010B  8  FF D7 FF FF FF FF FF FF 
  1240)     31176.2  Rx     18F0010B  8  FF D7 FF FF FF FF FF FF 
  1241)     31176.6  Rx     18F0010B  8  FF D7 FF FF FF FF FF FF 
  1242)     31176.9  Rx     18F0010B  8  FF D7 FF FF FF FF FF FF 
  1243)     31177.2  Rx     18F02300  8  7B D7 FF FF FF FF FF FF 
  1244)     31177.5  Rx     18F02300  8  7B D7 FF FF FF FF FF FF 
  1245)     31177.8  Rx     18F02300  8  7B D7 FF FF FF FF FF FF 
  1246)     31178.1  Rx     18F02300  8  7B D7 FF FF FF FF FF FF 
  1247)     31178.4  Rx     18F02300  8  7B D7 FF FF FF FF FF FF 
  1248)     31178.7  Rx     18F02300  8  7B D7 FF FF FF FF FF FF 
  1249)     31179.1  Rx     18F02300  8  7B D7 FF FF FF FF FF FF 
  1250)     31179.4  Rx     18F02300  8  7B D7 FF FF FF FF FF FF 
  1251)     31179.7  Rx     18F02300  8  7B D7 FF FF FF FF FF FF 
  1252)     31180.1  Rx     18FEF700  8  D7 FF 7B D7 7B D7 FF FF 
  1253)     31180.4  Rx     18FEBD00  8  D7 FF 7B D7 FF FF FF FF 
  1254)     31180.7  Rx     18FEBD00  8  D7 FF 7B D7 FF FF FF FF 
  1255)     31181.0  Rx     18FEBD00  8  D7 FF 7B D7 FF FF FF FF 
  1256)     31181.3  Rx     18FEBD00  8  D7 FF 7B D7 FF FF FF FF 
  1257)     31181.6  Rx     18FEBD00  8  D7 FF 7B D7 FF FF FF FF 
  1258)     31181.9  Rx     18FEBD00  8  D7 FF 7B D7 FF FF FF FF 
  1259)     31182.2  Rx     18FEBD00  8  D7 FF 7B D7 FF FF FF FF 
  1260)     31182.6  Rx     18FEBD00  8  D7 FF 7B D7 FF FF FF FF 
  1261)     31182.9  Rx     18FEBD00  8  D7 FF 7B D7 FF FF FF FF 
  1262)     31183.2  Rx     18FEA600  8  7B D7 C6 DB FF FF FF FF 
  1263)     31183.5  Rx     18FEA600  8  7B D7 C6 DB FF FF FF FF 
  1264)     31183.8  Rx     18FEA600  8  7B D7 C6 DB FF FF FF FF 
  1265)     31184.1  Rx     18FEA600  8  7B D7 C6 DB FF FF FF FF 
  1266)     31184.4  Rx     18FEA600  8  7B D7 C6 DB FF FF FF FF 
  1267)     31184.7  Rx     18FEA600  8  7B D7 C6 DB FF FF FF FF 
  1268)     31185.0  Rx     18FEA600  8  7B D7 C6 DB FF FF FF FF 
  1269)     31185.4  Rx     18FEA600  8  7B D7 C6 DB FF FF FF FF 
  1270)     31185.7  Rx     18FEA600  8  7B D7 C6 DB FF FF FF FF 
  1271)     31186.0  Rx     18FEA600  8  7B D7 C6 DB FF FF FF FF 
  1272)     31186.3  Rx     18FEA600  8  7B D7 C6 DB FF FF FF FF 
  1273)     31186.6  Rx     18FEA600  8  7B D7 C6 DB FF FF FF FF 
  1274)     31186.9  Rx     18FEA600  8  7B D7 C6 DB FF FF FF FF 
  1275)     31187.3  Rx     18FEA600  8  7B D7 C6 DB FF FF FF FF 
  1276)     31187.6  Rx     18FEA600  8  7B D7 C6 DB FF FF FF FF 
  1277)     31187.9  Rx     18FEA600  8  7B D7 C6 DB FF FF FF FF 
  1278)     31188.2  Rx     18FEA600  8  7B D7 C6 DB FF FF FF FF 
  1279)     31188.5  Rx     18FEA600  8  7B D7 C6 DB FF FF FF FF 
  1280)     31188.8  Rx     18FEA600  8  7B D7 C6 DB FF FF FF FF 
  1281)     31189.1  Rx     18FEA600  8  7B D7 C6 DB FF FF FF FF 
  1282)     31189.4  Rx     18FEA600  8  7B D7 C6 DB FF FF FF FF 
  1283)     31189.8  Rx     18FEA600  8  7B D7 C6 DB FF FF FF FF 
  1284)     31190.1  Rx     18FEA600  8  7B D7 C6 DB FF FF FF FF 
  1285)     31190.4  Rx     18FEA600  8  7B D7 C6 DB FF FF FF FF 
  1286)     31190.7  Rx     18FEA600  8  7B D7 C6 DB FF FF FF FF 
  1287)     31191.0  Rx     18FEA600  8  7B D7 C6 DB FF FF FF FF 
  1288)     31191.3  Rx     18FEA600  8  7B D7 C6 DB FF FF FF FF 
  1289)     31191.7  Rx     18FEA600  8  7B D7 C6 DB FF FF FF FF 
  1290)     31192.0  Rx     18FEA600  8  7B D7 C6 DB FF FF FF FF 
  1291)     31192.3  Rx     18FEA600  8  7B D7 C6 DB FF FF FF FF 
  1292)     31192.6  Rx     18FEA600  8  7B D7 C6 DB FF FF FF FF 
  1293)     31192.9  Rx     18FEA600  8  7B D7 C6 DB FF FF FF FF 
  1294)     31193.2  Rx     18FEA600  8  7B D7 C6 DB FF FF FF FF 
  1295)     31193.5  Rx     18FEA600  8  7B D7 C6 DB FF FF FF FF 
  1296)     31193.8  Rx     18FEA600  8  7B D7 C6 DB FF FF FF FF 
  1297)     31194.1  Rx     18FEA600  8  7B D7 C6 DB FF FF FF FF 
  1298)     31194.5  Rx     18FEA600  8  7B D7 C6 DB FF FF FF FF 
  1299)     31194.8  Rx     18FEA600  8  7B D7 C6 DB FF FF FF FF 
  1300)     31195.1  Rx     18FEA600  8  7B D7 C6 DB FF FF FF FF 
  1301)     31195.4  Rx     18FEA600  8  7B D7 C6 DB FF FF FF FF 
  1302)     31195.7  Rx     18FEA600  8  7B D7 C6 DB FF FF FF FF 
  1303)     31196.0  Rx     18FEA600  8  7B D7 C6 DB FF FF FF FF 
  1304)     31196.4  Rx     18FEA600  8  7B D7 C6 DB FF FF FF FF 
  1305)     31196.7  Rx     18FEA600  8  7B D7 C6 DB FF FF FF FF 
  1306)     31197.0  Rx     18FEA600  8  7B D7 C6 DB FF FF FF FF 
  1307)     31197.3  Rx     18FEA600  8  7B D7 C6 DB FF FF FF FF 
  1308)     31197.6  Rx     18FEA600  8  7B D7 C6 DB FF FF FF FF 
  1309)     31197.9  Rx     18FEA600  8  7B D7 C6 DB FF FF FF FF 
  1310)     31198.2  Rx     18FEA600  8  7B D7 C6 DB FF FF FF FF 
  1311)     31198.5  Rx     18FEA600  8  7B D7 C6 DB FF FF FF FF 
  1312)     31198.8  Rx     18FEA600  8  7B D7 C6 DB FF FF FF FF 
  1313)     31199.2  Rx     18FEA600  8  7B D7 C6 DB FF FF FF FF 
  1314)     31199.5  Rx     18FEA600  8  7B D7 C6 DB FF FF FF FF 
  1315)     31199.8  Rx     18FEA600  8  7B D7 C6 DB FF FF FF FF 
  1316)     31200.1  Rx     18FEA600  8  7B D7 C6 DB FF FF FF FF 
  1317)     31200.4  Rx     18FEA600  8  7B D7 C6 DB FF FF FF FF 
  1318)     31200.7  Rx     18FEA600  8  7B D7 C6 DB FF FF FF FF 
  1319)     31201.0  Rx     0CF00200  8  FF D7 6C FF FF FF FF FF 
  1320)     31201.4  Rx     0CF00200  8  FF D7 6C FF FF FF FF FF 
  1321)     31201.7  Rx     0CF00200  8  FF D7 6C FF FF FF FF FF 
  1322)     31202.0  Rx     0CF00200  8  FF D7 6C FF FF FF FF FF 
  1323)     31202.3  Rx     0CF00200  8  FF D7 6C FF FF FF FF FF 
  1324)     31202.7  Rx     0CF00200  8  FF D7 6C FF FF FF FF FF 
  1325)     31203.0  Rx     0CF00200  8  FF D7 6C FF FF FF FF FF 
  1326)     31203.3  Rx     0CF00200  8  FF D7 6C FF FF FF FF FF 
  1327)     31203.6  Rx     0CF00200  8  FF D7 6C FF FF FF FF FF 
  1328)     31203.9  Rx     0CF00200  8  FF D7 6C FF FF FF FF FF 
  1329)     31204.2  Rx     0CF00900  8  31 D8 FF 1C D8 39 D8 D7 
  1330)     31204.5  Rx     0CF00503  8  FF FF FF D7 FF FF FF FF 
  1331)     31204.9  Rx     0CF00503  8  FF FF FF D7 FF FF FF FF 
  1332)     31205.2  Rx     0CF00503  8  FF FF FF D7 FF FF FF FF 
  1333)     31205.5  Rx     0CF00503  8  FF FF FF D7 FF FF FF FF 
  1334)     31205.8  Rx     0CF00503  8  FF FF FF D7 FF FF FF FF 
  1335)     31206.1  Rx     0CF00503  8  FF FF FF D7 FF FF FF FF 
  1336)     31206.5  Rx     0CF00503  8  FF FF FF D7 FF FF FF FF 
  1337)     31206.8  Rx     0CF00503  8  FF FF FF D7 FF FF FF FF 
  1338)     31207.1  Rx     18F0010B  8  FF D7 FF FF FF FF FF FF 
  1339)     31207.4  Rx     0CF00000  8  FF 6C FF FF FF FF FF FF 
  1340)     31207.7  Rx     0CF00000  8  FF 6C FF FF FF FF FF FF 
  1341)     31208.1  Rx     0CF00000  8  FF 6C FF FF FF FF FF FF 
  1342)     31208.4  Rx     0CF00000  8  FF 6C FF FF FF FF FF FF 
  1343)     31208.7  Rx     0CF00000  8  FF 6C FF FF FF FF FF FF 
  1344)     31209.0  Rx     0CF00000  8  FF 6C FF FF FF FF FF FF 
  1345)     31209.4  Rx     0CF00000  8  FF 6C FF FF FF FF FF FF 
  1346)     31209.7  Rx     0CF00000  8  FF 6C FF FF FF FF FF FF 
  1347)     31210.1  Rx     18FE5600  8  D7 D7 FF FF FF FF FF FF 
  1348)     31210.4  Rx     18FDB300  8  36 D8 36 D8 FF FF FF FF 
  1349)     31210.7  Rx     18FDB300  8  36 D8 36 D8 FF FF FF FF 
  1350)     31211.0  Rx     18FDB300  8  36 D8 36 D8 FF FF FF FF 
  1351)     31211.4  Rx     18FDB300  8  36 D8 36 D8 FF FF FF FF 
  1352)     31211.7  Rx     18FDB300  8  36 D8 36 D8 FF FF FF FF 
  1353)     31212.0  Rx     18FDB300  8  36 D8 36 D8 FF FF FF FF 
  1354)     31212.3  Rx     18FDB300  8  36 D8 36 D8 FF FF FF FF 
  1355)     31212.7  Rx     18FDB300  8  36 D8 36 D8 FF FF FF FF 
  1356)     31213.0  Rx     18FDB300  8  36 D8 36 D8 FF FF FF FF 
  1357)     31213.2  Rx     18FEBD00  8  D7 FF 35 D8 FF FF FF FF 
  1358)     31213.6  Rx     18FEBD00  8  D7 FF 35 D8 FF FF FF FF 
  1359)     31213.9  Rx     18FEBD00  8  D7 FF 35 D8 FF FF FF FF 
  1360)     31214.2  Rx     18FEBD00  8  D7 FF 35 D8 FF FF FF FF 
  1361)     31214.5  Rx     18FEBD00  8  D7 FF 35 D8 FF FF FF FF 
  1362)     31214.8  Rx     18FEBD00  8  D7 FF 35 D8 FF FF FF FF 
  1363)     31215.1  Rx     18FEBD00  8  D7 FF 35 D8 FF FF FF FF 
  1364)     31215.5  Rx     18FEBD00  8  D7 FF 35 D8 FF FF FF FF 
  1365)     31215.8  Rx     18FEBD00  8  D7 FF 35 D8 FF FF FF FF 
  1366)     31216.1  Rx     18FEFF00  8  FF FF FF FF FF FF FF FF 
  1367)     31216.4  Rx     18FEF200  8  35 D8 36 D8 36 D8 FF FF 
  1368)     31216.7  Rx     18FEF200  8  35 D8 36 D8 36 D8 FF FF 
  1369)     31217.0  Rx     18FEF200  8  35 D8 36 D8 36 D8 FF FF 
  1370)     31217.3  Rx     18FEF200  8  35 D8 36 D8 36 D8 FF FF 
  1371)     31217.6  Rx     0CF00400  8  FD D8 D8 B6 D8 FF FF D8 
  1372)     31217.9  Rx     0CF00400  8  FD D8 D8 B6 D8 FF FF D8 
  1373)     31218.2  Rx     0CF00400  8  FD D8 D8 B6 D8 FF FF D8 
  1374)     31218.5  Rx     0CF00400  8  FD D8 D8 B6 D8 FF FF D8 
  1375)     31218.9  Rx     0CF00400  8  FD D8 D8 B6 D8 FF FF D8 
  1376)     31219.2  Rx     0CF00400  8  FD D8 D8 B6 D8 FF FF D8 
  1377)     31219.5  Rx     0CF00400  8  FD D8 D8 B6 D8 FF FF D8 
  1378)     31219.8  Rx     0CF00400  8  FD D8 D8 B6 D8 FF FF D8 
  1379)     31220.1  Rx     18FEEE00  8  D8 B7 D8 FF FF FF FF FF 
  1380)     31220.4  Rx     18FEEE00  8  D8 B7 D8 FF FF FF FF FF 
  1381)     31220.8  Rx     18FEEE00  8  D8 B7 D8 FF FF FF FF FF 
  1382)     31221.1  Rx     18FEEE00  8  D8 B7 D8 FF FF FF FF FF 
  1383)     31221.4  Rx     18FEEE00  8  D8 B7 D8 FF FF FF FF FF 
  1384)     31221.7  Rx     18FEEE00  8  D8 B7 D8 FF FF FF FF FF 
  1385)     31222.0  Rx     18FEEE00  8  D8 B7 D8 FF FF FF FF FF 
  1386)     31222.3  Rx     18FEEE00  8  D8 B7 D8 FF FF FF FF FF 
  1387)     31222.6  Rx     18FEEE00  8  D8 B7 D8 FF FF FF FF FF 
  1388)     31223.0  Rx     18FEEE00  8  D8 B7 D8 FF FF FF FF FF 
  1389)     31223.3  Rx     0CF00900  8  B2 D8 FF 9C D8 B9 D8 D8 
  1390)     31223.6  Rx     0CF00503  8  FF FF FF D8 FF FF FF FF 
  1391)     31223.9  Rx     0CF00503  8  FF FF FF D8 FF FF FF FF 
  1392)     31224.2  Rx     0CF00503  8  FF FF FF D8 FF FF FF FF 
  1393)     31224.6  Rx     0CF00503  8  FF FF FF D8 FF FF FF FF 
  1394)     31224.9  Rx     0CF00503  8  FF FF FF D8 FF FF FF FF 
  1395)     31225.2  Rx     0CF00503  8  FF FF FF D8 FF FF FF FF 
  1396)     31225.5  Rx     0CF00503  8  FF FF FF D8 FF FF FF FF 
  1397)     31225.8  Rx     0CF00503  8  FF FF FF D8 FF FF FF FF 
  1398)     31226.2  Rx     18FEFA0B  8  D8 FF FF FF FF FF FF FF 
  1399)     31226.5  Rx     0CF00000  8  FF 6C FF FF FF FF FF FF 
  1400)     31226.8  Rx     0CF00000  8  FF 6C FF FF FF FF FF FF 
  1401)     31227.1  Rx     0CF00000  8  FF 6C FF FF FF FF FF FF 
  1402)     31227.5  Rx     0CF00000  8  FF 6C FF FF FF FF FF FF 
  1403)     31227.8  Rx     0CF00000  8  FF 6C FF FF FF FF FF FF 
  1404)     31228.1  Rx     0CF00000  8  FF 6C FF FF FF FF FF FF 
  1405)     31228.4  Rx     0CF00000  8  FF 6C FF FF FF FF FF FF 
  1406)     31228.7  Rx     0CF00000  8  FF 6C FF FF FF FF FF FF 
  1407)     31229.2  Rx     18FDB300  8  B7 D8 B7 D8 FF FF FF FF 
  1408)     31229.5  Rx     18FDB300  8  B7 D8 B7 D8 FF FF FF FF 
  1409)     31229.8  Rx     18FDB300  8  B7 D8 B7 D8 FF FF FF FF 
  1410)     31230.1  Rx     18FDB300  8  B7 D8 B7 D8 FF FF FF FF 
  1411)     31230.4  Rx     18FDB300  8  B7 D8 B7 D8 FF FF FF FF 
  1412)     31230.7  Rx     18FDB300  8  B7 D8 B7 D8 FF FF FF FF 
  1413)     31231.0  Rx     18FDB300  8  B7 D8 B7 D8 FF FF FF FF 
  1414)     31231.3  Rx     18FDB300  8  B7 D8 B7 D8 FF FF FF FF 
  1415)     31231.6  Rx     18FDB300  8  B7 D8 B7 D8 FF FF FF FF 
  1416)     31232.0  Rx     18FDB300  8  B7 D8 B7 D8 FF FF FF FF 
  1417)     31232.3  Rx     18FEFC00  8  D8 D8 FF FF FF FF FF FF 
  1418)     31232.6  Rx     18FEE600  8  CE 33 14 0A 6E D8 FF FF 
  1419)     31232.9  Rx     18FEA600  8  B6 D8 07 DD FF FF FF FF 
  1420)     31233.2  Rx     18FEA600  8  B6 D8 07 DD FF FF FF FF 
  1421)     31233.5  Rx     18FEA600  8  B6 D8 07 DD FF FF FF FF 
  1422)     31233.9  Rx     18FEA600  8  B6 D8 07 DD FF FF FF FF 
  1423)     31234.2  Rx     18FEA600  8  B6 D8 07 DD FF FF FF FF 
  1424)     31234.5  Rx     18FEA600  8  B6 D8 07 DD FF FF FF FF 
  1425)     31234.8  Rx     18FEA600  8  B6 D8 07 DD FF FF FF FF 
  1426)     31235.2  Rx     18FEF200  8  B6 D8 B7 D8 B7 D8 FF FF 
  1427)     31235.5  Rx     18FEF200  8  B6 D8 B7 D8 B7 D8 FF FF 
  1428)     31235.9  Rx     18FEF200  8  B6 D8 B7 D8 B7 D8 FF FF 
  1429)     31236.2  Rx     18FEF200  8  B6 D8 B7 D8 B7 D8 FF FF 
  1430)     31236.5  Rx     18FEF200  8  B6 D8 B7 D8 B7 D8 FF FF 
  1431)     31236.8  Rx     18FEF200  8  B6 D8 B7 D8 B7 D8 FF FF 
  1432)     31237.1  Rx     18FEF200  8  B6 D8 B7 D8 B7 D8 FF FF 
  1433)     31237.4  Rx     18FEF200  8  B6 D8 B7 D8 B7 D8 FF FF 
  1434)     31237.7  Rx     18FEF200  8  B6 D8 B7 D8 B7 D8 FF FF 
  1435)     31238.0  Rx     0CF00200  8  FF D8 6C FF FF FF FF FF 
  1436)     31238.3  Rx     0CF00200  8  FF D8 6C FF FF FF FF FF 
  1437)     31238.6  Rx     0CF00200  8  FF D8 6C FF FF FF FF FF 
  1438)     31239.0  Rx     0CF00200  8  FF D8 6C FF FF FF FF FF 
  1439)     31239.3  Rx     0CF00200  8  FF D8 6C FF FF FF FF FF 
  1440)     31239.6  Rx     0CF00200  8  FF D8 6C FF FF FF FF FF 
  1441)     31239.9  Rx     0CF00200  8  FF D8 6C FF FF FF FF FF 
  1442)     31240.3  Rx     18FEEF00  8  D8 FF FF D8 FF FF FF FF 
  1443)     31240.6  Rx     18FEEF00  8  D8 FF FF D8 FF FF FF FF 
  1444)     31240.9  Rx     18FEEF00  8  D8 FF FF D8 FF FF FF FF 
  1445)     31241.2  Rx     18FEEF00  8  D8 FF FF D8 FF FF FF FF 
  1446)     31241.5  Rx     18FEEF00  8  D8 FF FF D8 FF FF FF FF 
  1447)     31241.8  Rx     18FEEF00  8  D8 FF FF D8 FF FF FF FF 
  1448)     31242.1  Rx     18FEEF00  8  D8 FF FF D8 FF FF FF FF 
  1449)     31242.4  Rx     18FEEF00  8  D8 FF FF D8 FF FF FF FF 
  1450)     31242.8  Rx     18FEEF00  8  D8 FF FF D8 FF FF FF FF 
  1451)     31243.1  Rx     18FEEF00  8  D8 FF FF D8 FF FF FF FF 
  1452)     31243.4  Rx     0CF00503  8  FF FF FF D8 FF FF FF FF 
  1453)     31243.7  Rx     0CF00503  8  FF FF FF D8 FF FF FF FF 
  1454)     31244.1  Rx     0CF00503  8  FF FF FF D8 FF FF FF FF 
  1455)     31244.4  Rx     0CF00503  8  FF FF FF D8 FF FF FF FF 
  1456)     31244.7  Rx     0CF00503  8  FF FF FF D8 FF FF FF FF 
  1457)     31245.0  Rx     0CF00503  8  FF FF FF D8 FF FF FF FF 
  1458)     31245.3  Rx     0CF00503  8  FF FF FF D8 FF FF FF FF 
  1459)     31245.6  Rx     0CF00503  8  FF FF FF D8 FF FF FF FF 
  1460)     31246.0  Rx     0CF00503  8  FF FF FF D8 FF FF FF FF 
  1461)     31246.3  Rx     0CF00000  8  FF 6C FF FF FF FF FF FF 
  1462)     31246.6  Rx     0CF00000  8  FF 6C FF FF FF FF FF FF 
  1463)     31246.9  Rx     0CF00000  8  FF 6C FF FF FF FF FF FF 
  1464)     31247.3  Rx     0CF00000  8  FF 6C FF FF FF FF FF FF 
  1465)     31247.6  Rx     0CF00000  8  FF 6C FF FF FF FF FF FF 
  1466)     31247.9  Rx     0CF00000  8  FF 6C FF FF FF FF FF FF 
  1467)     31248.2  Rx     0CF00000  8  FF 6C FF FF FF FF FF FF 
  1468)     31248.5  Rx     0CF00000  8  FF 6C FF FF FF FF FF FF 
  1469)     31248.9  Rx     0CF00000  8  FF 6C FF FF FF FF FF FF 
  1470)     31249.4  Rx     18FEF500  8  D8 37 D9 37 D9 D8 37 D9 
  1471)     31249.7  Rx     18FEF500  8  D8 37 D9 37 D9 D8 37 D9 
  1472)     31249.9  Rx     18FEBD00  8  D8 FF 36 D9 FF FF FF FF 
  1473)     31250.3  Rx     18FEBD00  8  D8 FF 36 D9 FF FF FF FF 
  1474)     31250.6  Rx     18FEBD00  8  D8 FF 36 D9 FF FF FF FF 
  1475)     31250.9  Rx     18FEBD00  8  D8 FF 36 D9 FF FF FF FF 
  1476)     31251.2  Rx     18FEBD00  8  D8 FF 36 D9 FF FF FF FF 
  1477)     31251.5  Rx     18FEBD00  8  D8 FF 36 D9 FF FF FF FF 
  1478)     31251.8  Rx     18FEBD00  8  D8 FF 36 D9 FF FF FF FF 
  1479)     31252.4  Rx     18FEE600  8  CF 33 14 0B 6E D8 FF FF 
  1480)     31252.7  Rx     18FEA600  8  36 D9 8A DD FF FF FF FF 
  1481)     31253.1  Rx     18FEA600  8  36 D9 8A DD FF FF FF FF 
  1482)     31253.4  Rx     18FEA600  8  36 D9 8A DD FF FF FF FF 
  1483)     31253.7  Rx     18FEA600  8  36 D9 8A DD FF FF FF FF 
  1484)     31254.0  Rx     18FEA600  8  36 D9 8A DD FF FF FF FF 
  1485)     31254.3  Rx     18FEA600  8  36 D9 8A DD FF FF FF FF 
  1486)     31254.6  Rx     18FEA600  8  36 D9 8A DD FF FF FF FF 
  1487)     31254.9  Rx     18FEA600  8  36 D9 8A DD FF FF FF FF 
  1488)     31257.6  Rx     0CF00400  8  FD D9 D9 B7 D9 FF FF D9 
  1489)     31257.9  Rx     0CF00200  8  FF D9 6C FF FF FF FF FF 
  1490)     31258.3  Rx     0CF00200  8  FF D9 6C FF FF FF FF FF 
  1491)     31258.6  Rx     0CF00200  8  FF D9 6C FF FF FF FF FF 
  1492)     31258.9  Rx     0CF00200  8  FF D9 6C FF FF FF FF FF 
  1493)     31259.2  Rx     0CF00200  8  FF D9 6C FF FF FF FF FF 
  1494)     31259.5  Rx     0CF00200  8  FF D9 6C FF FF FF FF FF 
  1495)     31259.8  Rx     0CF00200  8  FF D9 6C FF FF FF FF FF 
  1496)     31260.1  Rx     0CF00200  8  FF D9 6C FF FF FF FF FF 
  1497)     31260.5  Rx     18FEF100  8  FF B8 D9 FF FF FF FF FF 
  1498)     31260.8  Rx     0CF00900  8  B3 D9 FF 9D D9 BA D9 D9 
  1499)     31261.1  Rx     0CF00900  8  B3 D9 FF 9D D9 BA D9 D9 
  1500)     31261.4  Rx     0CF00900  8  B3 D9 FF 9D D9 BA D9 D9 
  1501)     31261.7  Rx     0CF00900  8  B3 D9 FF 9D D9 BA D9 D9 
  1502)     31262.0  Rx     0CF00900  8  B3 D9 FF 9D D9 BA D9 D9 
  1503)     31262.3  Rx     0CF00900  8  B3 D9 FF 9D D9 BA D9 D9 
  1504)     31262.6  Rx     0CF00900  8  B3 D9 FF 9D D9 BA D9 D9 
  1505)     31262.9  Rx     0CF00900  8  B3 D9 FF 9D D9 BA D9 D9 
  1506)     31263.3  Rx     18FEF803  8  FF FF FF D9 B8 D9 FF FF 
  1507)     31263.6  Rx     18F0010B  8  FF D9 FF FF FF FF FF FF 
