;$FILEVERSION=1.1
;$STARTTIME=46279.644979919
;
;   Start time: 14-09-2026 15:28:46.265.0
;   Generated by PCAN-View v6.0.1.1047
;
;   Message Number
;   |         Time Offset (ms)
;   |         |        Type
;   |         |        |        ID (hex)
;   |         |        |        |     Data Length
;   |         |        |        |     |   Data Bytes (hex) ...
;   |         |        |        |     |   |
;---+--   ----+----  --+--  ----+---  +  -+ -- -- -- -- -- -- --
     1)    102557.2  Rx     0CF00000  8  FF 3A FF FF FF FF FF FF 
     2)    102557.5  Rx     0CF00000  8  FF 3A FF FF FF FF FF FF 
     3)    102557.8  Rx     0CF00000  8  FF 3A FF FF FF FF FF FF 
     4)    102558.3  Rx     18FEF500  8  74 77 74 77 74 74 77 74 
     5)    102558.5  Rx     18FEF500  8  74 77 74 77 74 74 77 74 
     6)    102558.9  Rx     18FEBD00  8  74 FF 76 74 FF FF FF FF 
     7)    102559.2  Rx     18FEBD00  8  74 FF 76 74 FF FF FF FF 
     8)    102559.5  Rx     18FEBD00  8  74 FF 76 74 FF FF FF FF 
     9)    102559.8  Rx     18FEBD00  8  74 FF 76 74 FF FF FF FF 
    10)    102560.1  Rx     18FEBD00  8  74 FF 76 74 FF FF FF FF 
    11)    102560.4  Rx     18FEBD00  8  74 FF 76 74 FF FF FF FF 
    12)    102560.7  Rx     18FEBD00  8  74 FF 76 74 FF FF FF FF 
    13)    102561.0  Rx     18FEBD00  8  74 FF 76 74 FF FF FF FF 
    14)    102561.3  Rx     18FEE600  8  6F 1B 0B 06 3B 74 FF FF 
    15)    102561.6  Rx     18FEA600  8  76 74 C8 76 FF FF FF FF 
    16)    102562.0  Rx     18FEA600  8  76 74 C8 76 FF FF FF FF 
    17)    102562.3  Rx     18FEA600  8  76 74 C8 76 FF FF FF FF 
    18)    102562.6  Rx     18FEA600  8  76 74 C8 76 FF FF FF FF 
    19)    102562.9  Rx     18FEA600  8  76 74 C8 76 FF FF FF FF 
    20)    102563.2  Rx     18FEA600  8  76 74 C8 76 FF FF FF FF 
    21)    102563.5  Rx     18FEA600  8  76 74 C8 76 FF FF FF FF 
    22)    102563.8  Rx     18FEA600  8  76 74 C8 76 FF FF FF FF 
    23)    102566.6  Rx     0CF00400  8  F7 75 75 F7 74 FF FF 75 
    24)    102566.9  Rx     0CF00200  8  FF 75 3A FF FF FF FF FF 
    25)    102567.2  Rx     0CF00200  8  FF 75 3A FF FF FF FF FF 
    26)    102567.5  Rx     0CF00200  8  FF 75 3A FF FF FF FF FF 
    27)    102567.8  Rx     0CF00200  8  FF 75 3A FF FF FF FF FF 
    28)    102568.1  Rx     0CF00200  8  FF 75 3A FF FF FF FF FF 
    29)    102568.5  Rx     0CF00200  8  FF 75 3A FF FF FF FF FF 
    30)    102568.8  Rx     0CF00200  8  FF 75 3A FF FF FF FF FF 
    31)    102569.1  Rx     18FEF600  8  FF 75 FF FF FF FF FF FF 
    32)    102569.4  Rx     0CF00900  8  F7 74 FF E9 74 F6 74 75 
    33)    102569.7  Rx     0CF00900  8  F7 74 FF E9 74 F6 74 75 
    34)    102570.0  Rx     0CF00900  8  F7 74 FF E9 74 F6 74 75 
    35)    102570.3  Rx     0CF00900  8  F7 74 FF E9 74 F6 74 75 
    36)    102570.6  Rx     0CF00900  8  F7 74 FF E9 74 F6 74 75 
    37)    102570.9  Rx     0CF00900  8  F7 74 FF E9 74 F6 74 75 
    38)    102571.2  Rx     0CF00900  8  F7 74 FF E9 74 F6 74 75 
    39)    102571.5  Rx     0CF00900  8  F7 74 FF E9 74 F6 74 75 
    40)    102571.9  Rx     0CF00900  8  F7 74 FF E9 74 F6 74 75 
    41)    102572.1  Rx     18FEF803  8  FF FF FF 75 F7 74 FF FF 
    42)    102572.4  Rx     18F0010B  8  FF 75 FF FF FF FF FF FF 
    43)    102572.8  Rx     18F0010B  8  FF 75 FF FF FF FF FF FF 
    44)    102573.1  Rx     18F0010B  8  FF 75 FF FF FF FF FF FF 
    45)    102573.4  Rx     18F0010B  8  FF 75 FF FF FF FF FF FF 
    46)    102573.7  Rx     18F0010B  8  FF 75 FF FF FF FF FF FF 
    47)    102574.0  Rx     18F0010B  8  FF 75 FF FF FF FF FF FF 
    48)    102574.3  Rx     18F0010B  8  FF 75 FF FF FF FF FF FF 
    49)    102574.7  Rx     18F0010B  8  FF 75 FF FF FF FF FF FF 
    50)    102575.0  Rx     18F0010B  8  FF 75 FF FF FF FF FF FF 
    51)    102575.3  Rx     18F02300  8  F7 74 FF FF FF FF FF FF 
    52)    102575.6  Rx     18F02300  8  F7 74 FF FF FF FF FF FF 
    53)    102575.9  Rx     18F02300  8  F7 74 FF FF FF FF FF FF 
    54)    102576.2  Rx     18F02300  8  F7 74 FF FF FF FF FF FF 
    55)    102576.5  Rx     18F02300  8  F7 74 FF FF FF FF FF FF 
    56)    102576.8  Rx     18F02300  8  F7 74 FF FF FF FF FF FF 
    57)    102577.2  Rx     18F02300  8  F7 74 FF FF FF FF FF FF 
    58)    102577.5  Rx     18F02300  8  F7 74 FF FF FF FF FF FF 
    59)    102577.8  Rx     18F02300  8  F7 74 FF FF FF FF FF FF 
    60)    102578.2  Rx     18FEF700  8  75 FF F7 74 F7 74 FF FF 
    61)    102578.5  Rx     18FEBD00  8  75 FF F7 74 FF FF FF FF 
    62)    102578.8  Rx     18FEBD00  8  75 FF F7 74 FF FF FF FF 
    63)    102579.1  Rx     18FEBD00  8  75 FF F7 74 FF FF FF FF 
    64)    102579.5  Rx     18FEBD00  8  75 FF F7 74 FF FF FF FF 
    65)    102579.8  Rx     18FEBD00  8  75 FF F7 74 FF FF FF FF 
    66)    102580.1  Rx     18FEBD00  8  75 FF F7 74 FF FF FF FF 
    67)    102580.4  Rx     18FEBD00  8  75 FF F7 74 FF FF FF FF 
    68)    102580.7  Rx     18FEBD00  8  75 FF F7 74 FF FF FF FF 
    69)    102581.0  Rx     18FEBD00  8  75 FF F7 74 FF FF FF FF 
    70)    102581.4  Rx     18FEA600  8  F7 74 4B 77 FF FF FF FF 
    71)    102581.7  Rx     18FEA600  8  F7 74 4B 77 FF FF FF FF 
    72)    102582.0  Rx     18FEA600  8  F7 74 4B 77 FF FF FF FF 
    73)    102582.3  Rx     18FEA600  8  F7 74 4B 77 FF FF FF FF 
    74)    102582.6  Rx     18FEA600  8  F7 74 4B 77 FF FF FF FF 
    75)    102582.9  Rx     18FEA600  8  F7 74 4B 77 FF FF FF FF 
    76)    102583.2  Rx     18FEA600  8  F7 74 4B 77 FF FF FF FF 
    77)    102583.5  Rx     18FEA600  8  F7 74 4B 77 FF FF FF FF 
    78)    102583.8  Rx     18FEA600  8  F7 74 4B 77 FF FF FF FF 
    79)    102584.2  Rx     18FEA600  8  F7 74 4B 77 FF FF FF FF 
    80)    102584.5  Rx     18FEA600  8  F7 74 4B 77 FF FF FF FF 
    81)    102584.8  Rx     18FEA600  8  F7 74 4B 77 FF FF FF FF 
    82)    102585.1  Rx     18FEA600  8  F7 74 4B 77 FF FF FF FF 
    83)    102585.4  Rx     18FEA600  8  F7 74 4B 77 FF FF FF FF 
    84)    102585.7  Rx     18FEA600  8  F7 74 4B 77 FF FF FF FF 
    85)    102586.1  Rx     18FEA600  8  F7 74 4B 77 FF FF FF FF 
    86)    102586.4  Rx     18FEA600  8  F7 74 4B 77 FF FF FF FF 
    87)    102586.7  Rx     18FEA600  8  F7 74 4B 77 FF FF FF FF 
    88)    102587.0  Rx     18FEA600  8  F7 74 4B 77 FF FF FF FF 
    89)    102587.3  Rx     18FEA600  8  F7 74 4B 77 FF FF FF FF 
    90)    102587.6  Rx     18FEA600  8  F7 74 4B 77 FF FF FF FF 
    91)    102587.9  Rx     18FEA600  8  F7 74 4B 77 FF FF FF FF 
    92)    102588.2  Rx     18FEA600  8  F7 74 4B 77 FF FF FF FF 
    93)    102588.5  Rx     18FEA600  8  F7 74 4B 77 FF FF FF FF 
    94)    102588.9  Rx     18FEA600  8  F7 74 4B 77 FF FF FF FF 
    95)    102589.2  Rx     18FEA600  8  F7 74 4B 77 FF FF FF FF 
    96)    102589.5  Rx     18FEA600  8  F7 74 4B 77 FF FF FF FF 
    97)    102589.8  Rx     18FEA600  8  F7 74 4B 77 FF FF FF FF 
    98)    102590.2  Rx     0CF00200  8  FF 75 3B FF FF FF FF FF 
    99)    102590.5  Rx     0CF00200  8  FF 75 3B FF FF FF FF FF 
   100)    102590.8  Rx     0CF00200  8  FF 75 3B FF FF FF FF FF 
   101)    102591.2  Rx     0CF00200  8  FF 75 3B FF FF FF FF FF 
   102)    102591.5  Rx     0CF00200  8  FF 75 3B FF FF FF FF FF 
   103)    102591.8  Rx     0CF00200  8  FF 75 3B FF FF FF FF FF 
   104)    102592.1  Rx     0CF00200  8  FF 75 3B FF FF FF FF FF 
   105)    102592.4  Rx     0CF00200  8  FF 75 3B FF FF FF FF FF 
   106)    102592.8  Rx     0CF00200  8  FF 75 3B FF FF FF FF FF 
   107)    102593.1  Rx     0CF00200  8  FF 75 3B FF FF FF FF FF 
   108)    102593.4  Rx     18FEF100  8  FF 7E 75 FF FF FF FF FF 
   109)    102593.7  Rx     0CF00503  8  FF FF FF 75 FF FF FF FF 
   110)    102594.0  Rx     0CF00503  8  FF FF FF 75 FF FF FF FF 
   111)    102594.3  Rx     0CF00503  8  FF FF FF 75 FF FF FF FF 
   112)    102594.6  Rx     0CF00503  8  FF FF FF 75 FF FF FF FF 
   113)    102595.0  Rx     0CF00503  8  FF FF FF 75 FF FF FF FF 
   114)    102595.3  Rx     0CF00503  8  FF FF FF 75 FF FF FF FF 
   115)    102595.6  Rx     0CF00503  8  FF FF FF 75 FF FF FF FF 
   116)    102595.9  Rx     0CF00503  8  FF FF FF 75 FF FF FF FF 
   117)    102596.2  Rx     18F0010B  8  FF 75 FF FF FF FF FF FF 
   118)    102596.6  Rx     0CF00000  8  FF 3B FF FF FF FF FF FF 
   119)    102596.9  Rx     0CF00000  8  FF 3B FF FF FF FF FF FF 
   120)    102597.2  Rx     0CF00000  8  FF 3B FF FF FF FF FF FF 
   121)    102597.5  Rx     0CF00000  8  FF 3B FF FF FF FF FF FF 
   122)    102597.8  Rx     0CF00000  8  FF 3B FF FF FF FF FF FF 
   123)    102598.2  Rx     0CF00000  8  FF 3B FF FF FF FF FF FF 
   124)    102598.5  Rx     0CF00000  8  FF 3B FF FF FF FF FF FF 
   125)    102598.8  Rx     0CF00000  8  FF 3B FF FF FF FF FF FF 
   126)    102599.1  Rx     0CF00000  8  FF 3B FF FF FF FF FF FF 
   127)    102599.5  Rx     18FDB300  8  7E 75 7E 75 FF FF FF FF 
   128)    102599.8  Rx     18FDB300  8  7E 75 7E 75 FF FF FF FF 
   129)    102600.1  Rx     18FDB300  8  7E 75 7E 75 FF FF FF FF 
   130)    102600.4  Rx     18FDB300  8  7E 75 7E 75 FF FF FF FF 
   131)    102600.7  Rx     18FDB300  8  7E 75 7E 75 FF FF FF FF 
   132)    102601.0  Rx     18FDB300  8  7E 75 7E 75 FF FF FF FF 
   133)    102601.3  Rx     18FDB300  8  7E 75 7E 75 FF FF FF FF 
   134)    102601.6  Rx     18FDB300  8  7E 75 7E 75 FF FF FF FF 
   135)    102601.9  Rx     18FDB300  8  7E 75 7E 75 FF FF FF FF 
   136)    102602.3  Rx     18FEBD00  8  75 FF 7E 75 FF FF FF FF 
   137)    102602.6  Rx     18FEBD00  8  75 FF 7E 75 FF FF FF FF 
   138)    102602.9  Rx     18FEBD00  8  75 FF 7E 75 FF FF FF FF 
   139)    102603.2  Rx     18FEBD00  8  75 FF 7E 75 FF FF FF FF 
   140)    102603.5  Rx     18FEBD00  8  75 FF 7E 75 FF FF FF FF 
   141)    102603.8  Rx     18FEBD00  8  75 FF 7E 75 FF FF FF FF 
   142)    102604.1  Rx     18FEBD00  8  75 FF 7E 75 FF FF FF FF 
   143)    102604.4  Rx     18FEBD00  8  75 FF 7E 75 FF FF FF FF 
   144)    102604.7  Rx     18FEBD00  8  75 FF 7E 75 FF FF FF FF 
   145)    102605.1  Rx     18FEBD00  8  75 FF 7E 75 FF FF FF FF 
   146)    102605.4  Rx     18FEFF00  8  FD FF FF FF FF FF FF FF 
   147)    102605.7  Rx     18FEF200  8  7E 75 7E 75 7E 75 FF FF 
   148)    102606.0  Rx     18FEF200  8  7E 75 7E 75 7E 75 FF FF 
   149)    102606.3  Rx     18FEF200  8  7E 75 7E 75 7E 75 FF FF 
   150)    102606.6  Rx     18FEF200  8  7E 75 7E 75 7E 75 FF FF 
   151)    102607.0  Rx     18FEF200  8  7E 75 7E 75 7E 75 FF FF 
   152)    102607.3  Rx     18FEF200  8  7E 75 7E 75 7E 75 FF FF 
   153)    102607.6  Rx     18FEF200  8  7E 75 7E 75 7E 75 FF FF 
   154)    102607.9  Rx     18FEF200  8  7E 75 7E 75 7E 75 FF FF 
   155)    102608.2  Rx     0CF00400  8  F7 76 76 FE 75 FF FF 76 
   156)    102608.5  Rx     0CF00400  8  F7 76 76 FE 75 FF FF 76 
   157)    102608.8  Rx     0CF00400  8  F7 76 76 FE 75 FF FF 76 
   158)    102609.1  Rx     0CF00400  8  F7 76 76 FE 75 FF FF 76 
   159)    102609.4  Rx     0CF00400  8  F7 76 76 FE 75 FF FF 76 
   160)    102609.7  Rx     0CF00400  8  F7 76 76 FE 75 FF FF 76 
   161)    102610.0  Rx     0CF00400  8  F7 76 76 FE 75 FF FF 76 
   162)    102610.3  Rx     18FEEE00  8  76 FF 75 FF FF FF FF FF 
   163)    102610.6  Rx     18FEEE00  8  76 FF 75 FF FF FF FF FF 
   164)    102611.0  Rx     18FEEE00  8  76 FF 75 FF FF FF FF FF 
   165)    102611.3  Rx     18FEEE00  8  76 FF 75 FF FF FF FF FF 
   166)    102611.6  Rx     18FEEE00  8  76 FF 75 FF FF FF FF FF 
   167)    102611.9  Rx     18FEEE00  8  76 FF 75 FF FF FF FF FF 
   168)    102612.2  Rx     18FEEE00  8  76 FF 75 FF FF FF FF FF 
   169)    102612.5  Rx     18FEEE00  8  76 FF 75 FF FF FF FF FF 
   170)    102612.9  Rx     18FEEE00  8  76 FF 75 FF FF FF FF FF 
   171)    102613.2  Rx     18FEEE00  8  76 FF 75 FF FF FF FF FF 
   172)    102613.5  Rx     0CF00503  8  FF FF FF 76 FF FF FF FF 
   173)    102613.8  Rx     0CF00503  8  FF FF FF 76 FF FF FF FF 
   174)    102614.1  Rx     0CF00503  8  FF FF FF 76 FF FF FF FF 
   175)    102614.4  Rx     0CF00503  8  FF FF FF 76 FF FF FF FF 
   176)    102614.7  Rx     0CF00503  8  FF FF FF 76 FF FF FF FF 
   177)    102615.1  Rx     0CF00503  8  FF FF FF 76 FF FF FF FF 
   178)    102615.4  Rx     0CF00503  8  FF FF FF 76 FF FF FF FF 
   179)    102615.7  Rx     0CF00503  8  FF FF FF 76 FF FF FF FF 
   180)    102616.0  Rx     0CF00503  8  FF FF FF 76 FF FF FF FF 
   181)    102616.3  Rx     18FEFA0B  8  76 FF FF FF FF FF FF FF 
   182)    102616.6  Rx     0CF00000  8  FF 3B FF FF FF FF FF FF 
   183)    102616.9  Rx     0CF00000  8  FF 3B FF FF FF FF FF FF 
   184)    102617.3  Rx     0CF00000  8  FF 3B FF FF FF FF FF FF 
   185)    102617.6  Rx     0CF00000  8  FF 3B FF FF FF FF FF FF 
   186)    102617.9  Rx     0CF00000  8  FF 3B FF FF FF FF FF FF 
   187)    102618.3  Rx     0CF00000  8  FF 3B FF FF FF FF FF FF 
   188)    102618.6  Rx     0CF00000  8  FF 3B FF FF FF FF FF FF 
   189)    102618.9  Rx     0CF00000  8  FF 3B FF FF FF FF FF FF 
   190)    102619.3  Rx     18FDB300  8  FF 75 FF 75 FF FF FF FF 
   191)    102619.6  Rx     18FDB300  8  FF 75 FF 75 FF FF FF FF 
   192)    102619.9  Rx     18FDB300  8  FF 75 FF 75 FF FF FF FF 
   193)    102620.2  Rx     18FDB300  8  FF 75 FF 75 FF FF FF FF 
   194)    102620.6  Rx     18FDB300  8  FF 75 FF 75 FF FF FF FF 
   195)    102620.9  Rx     18FDB300  8  FF 75 FF 75 FF FF FF FF 
   196)    102621.2  Rx     18FDB300  8  FF 75 FF 75 FF FF FF FF 
   197)    102621.5  Rx     18FDB300  8  FF 75 FF 75 FF FF FF FF 
   198)    102621.8  Rx     18FDB300  8  FF 75 FF 75 FF FF FF FF 
   199)    102622.2  Rx     18FDB300  8  FF 75 FF 75 FF FF FF FF 
   200)    102622.5  Rx     18FEFC00  8  76 76 FF FF FF FF FF FF 
   201)    102622.8  Rx     18FEE600  8  70 1C 0B 06 3C 76 FF FF 
   202)    102623.1  Rx     18FEA600  8  FE 75 58 78 FF FF FF FF 
   203)    102623.4  Rx     18FEA600  8  FE 75 58 78 FF FF FF FF 
   204)    102623.7  Rx     18FEA600  8  FE 75 58 78 FF FF FF FF 
   205)    102624.0  Rx     18FEA600  8  FE 75 58 78 FF FF FF FF 
   206)    102624.3  Rx     18FEA600  8  FE 75 58 78 FF FF FF FF 
   207)    102624.7  Rx     18FEA600  8  FE 75 58 78 FF FF FF FF 
   208)    102625.0  Rx     18FEA600  8  FE 75 58 78 FF FF FF FF 
   209)    102625.4  Rx     18FEF200  8  FE 75 FF 75 FF 75 FF FF 
   210)    102625.7  Rx     18FEF200  8  FE 75 FF 75 FF 75 FF FF 
   211)    102626.0  Rx     18FEF200  8  FE 75 FF 75 FF 75 FF FF 
   212)    102626.3  Rx     18FEF200  8  FE 75 FF 75 FF 75 FF FF 
   213)    102626.6  Rx     18FEF200  8  FE 75 FF 75 FF 75 FF FF 
   214)    102626.9  Rx     18FEF200  8  FE 75 FF 75 FF 75 FF FF 
   215)    102627.2  Rx     18FEF200  8  FE 75 FF 75 FF 75 FF FF 
   216)    102627.5  Rx     18FEF200  8  FE 75 FF 75 FF 75 FF FF 
   217)    102627.9  Rx     18FEF200  8  FE 75 FF 75 FF 75 FF FF 
   218)    102628.2  Rx     0CF00200  8  FF 76 3B FF FF FF FF FF 
   219)    102628.5  Rx     0CF00200  8  FF 76 3B FF FF FF FF FF 
   220)    102628.8  Rx     0CF00200  8  FF 76 3B FF FF FF FF FF 
   221)    102629.2  Rx     0CF00200  8  FF 76 3B FF FF FF FF FF 
   222)    102629.4  Rx     0CF00200  8  FF 76 3B FF FF FF FF FF 
   223)    102629.8  Rx     0CF00200  8  FF 76 3B FF FF FF FF FF 
   224)    102630.1  Rx     0CF00200  8  FF 76 3B FF FF FF FF FF 
   225)    102630.4  Rx     18FEEF00  8  76 FF FF 76 FF FF FF FF 
   226)    102630.7  Rx     18FEEF00  8  76 FF FF 76 FF FF FF FF 
   227)    102631.0  Rx     18FEEF00  8  76 FF FF 76 FF FF FF FF 
   228)    102631.4  Rx     18FEEF00  8  76 FF FF 76 FF FF FF FF 
   229)    102631.7  Rx     18FEEF00  8  76 FF FF 76 FF FF FF FF 
   230)    102632.0  Rx     18FEEF00  8  76 FF FF 76 FF FF FF FF 
   231)    102632.3  Rx     18FEEF00  8  76 FF FF 76 FF FF FF FF 
   232)    102632.6  Rx     18FEEF00  8  76 FF FF 76 FF FF FF FF 
   233)    102632.9  Rx     18FEEF00  8  76 FF FF 76 FF FF FF FF 
   234)    102633.2  Rx     18FEEF00  8  76 FF FF 76 FF FF FF FF 
   235)    102633.5  Rx     0CF00503  8  FF FF FF 76 FF FF FF FF 
   236)    102633.9  Rx     0CF00503  8  FF FF FF 76 FF FF FF FF 
   237)    102634.2  Rx     0CF00503  8  FF FF FF 76 FF FF FF FF 
   238)    102634.5  Rx     0CF00503  8  FF FF FF 76 FF FF FF FF 
   239)    102634.8  Rx     0CF00503  8  FF FF FF 76 FF FF FF FF 
   240)    102635.1  Rx     0CF00503  8  FF FF FF 76 FF FF FF FF 
   241)    102635.5  Rx     0CF00503  8  FF FF FF 76 FF FF FF FF 
   242)    102635.8  Rx     0CF00503  8  FF FF FF 76 FF FF FF FF 
   243)    102636.1  Rx     0CF00503  8  FF FF FF 76 FF FF FF FF 
   244)    102636.4  Rx     0CF00000  8  FF 3B FF FF FF FF FF FF 
   245)    102636.7  Rx     0CF00000  8  FF 3B FF FF FF FF FF FF 
   246)    102637.0  Rx     0CF00000  8  FF 3B FF FF FF FF FF FF 
   247)    102637.4  Rx     0CF00000  8  FF 3B FF FF FF FF FF FF 
   248)    102637.7  Rx     0CF00000  8  FF 3B FF FF FF FF FF FF 
   249)    102638.0  Rx     0CF00000  8  FF 3B FF FF FF FF FF FF 
   250)    102638.3  Rx     0CF00000  8  FF 3B FF FF FF FF FF FF 
   251)    102638.7  Rx     0CF00000  8  FF 3B FF FF FF FF FF FF 
   252)    102639.0  Rx     0CF00000  8  FF 3B FF FF FF FF FF FF 
   253)    102639.5  Rx     18FEF500  8  76 7F 76 7F 76 76 7F 76 
   254)    102639.8  Rx     18FEF500  8  76 7F 76 7F 76 76 7F 76 
   255)    102640.1  Rx     18FEBD00  8  76 FF 7F 76 FF FF FF FF 
   256)    102640.4  Rx     18FEBD00  8  76 FF 7F 76 FF FF FF FF 
   257)    102640.8  Rx     18FEBD00  8  76 FF 7F 76 FF FF FF FF 
   258)    102641.1  Rx     18FEBD00  8  76 FF 7F 76 FF FF FF FF 
   259)    102641.4  Rx     18FEBD00  8  76 FF 7F 76 FF FF FF FF 
   260)    102641.7  Rx     18FEBD00  8  76 FF 7F 76 FF FF FF FF 
   261)    102642.0  Rx     18FEBD00  8  76 FF 7F 76 FF FF FF FF 
   262)    102642.6  Rx     18FEE600  8  71 1C 0B 06 3C 76 FF FF 
   263)    102642.9  Rx     18FEA600  8  7F 76 DB 78 FF FF FF FF 
   264)    102643.2  Rx     18FEA600  8  7F 76 DB 78 FF FF FF FF 
   265)    102643.5  Rx     18FEA600  8  7F 76 DB 78 FF FF FF FF 
   266)    102643.8  Rx     18FEA600  8  7F 76 DB 78 FF FF FF FF 
   267)    102644.1  Rx     18FEA600  8  7F 76 DB 78 FF FF FF FF 
   268)    102644.4  Rx     18FEA600  8  7F 76 DB 78 FF FF FF FF 
   269)    102644.8  Rx     18FEA600  8  7F 76 DB 78 FF FF FF FF 
   270)    102645.1  Rx     18FEA600  8  7F 76 DB 78 FF FF FF FF 
   271)    102647.8  Rx     0CF00400  8  F7 77 77 FF 76 FF FF 77 
   272)    102648.2  Rx     0CF00200  8  FF 77 3B FF FF FF FF FF 
   273)    102648.5  Rx     0CF00200  8  FF 77 3B FF FF FF FF FF 
   274)    102648.8  Rx     0CF00200  8  FF 77 3B FF FF FF FF FF 
   275)    102649.1  Rx     0CF00200  8  FF 77 3B FF FF FF FF FF 
   276)    102649.4  Rx     0CF00200  8  FF 77 3B FF FF FF FF FF 
   277)    102649.8  Rx     0CF00200  8  FF 77 3B FF FF FF FF FF 
   278)    102650.1  Rx     0CF00200  8  FF 77 3B FF FF FF FF FF 
   279)    102650.4  Rx     18FEF600  8  FF 77 FF FF FF FF FF FF 
   280)    102650.7  Rx     0CF00900  8  FF 76 FF F1 76 FE 76 77 
   281)    102651.0  Rx     0CF00900  8  FF 76 FF F1 76 FE 76 77 
   282)    102651.3  Rx     0CF00900  8  FF 76 FF F1 76 FE 76 77 
   283)    102651.6  Rx     0CF00900  8  FF 76 FF F1 76 FE 76 77 
   284)    102651.9  Rx     0CF00900  8  FF 76 FF F1 76 FE 76 77 
   285)    102652.2  Rx     0CF00900  8  FF 76 FF F1 76 FE 76 77 
   286)    102652.5  Rx     0CF00900  8  FF 76 FF F1 76 FE 76 77 
   287)    102652.8  Rx     0CF00900  8  FF 76 FF F1 76 FE 76 77 
   288)    102653.1  Rx     0CF00900  8  FF 76 FF F1 76 FE 76 77 
   289)    102653.4  Rx     18FEF803  8  FF FF FF 77 00 77 FF FF 
   290)    102653.8  Rx     18F0010B  8  FF 77 FF FF FF FF FF FF 
   291)    102654.1  Rx     18F0010B  8  FF 77 FF FF FF FF FF FF 
   292)    102654.4  Rx     18F0010B  8  FF 77 FF FF FF FF FF FF 
   293)    102654.7  Rx     18F0010B  8  FF 77 FF FF FF FF FF FF 
   294)    102655.0  Rx     18F0010B  8  FF 77 FF FF FF FF FF FF 
   295)    102655.3  Rx     18F0010B  8  FF 77 FF FF FF FF FF FF 
   296)    102655.6  Rx     18F0010B  8  FF 77 FF FF FF FF FF FF 
   297)    102655.9  Rx     18F0010B  8  FF 77 FF FF FF FF FF FF 
   298)    102656.3  Rx     18F0010B  8  FF 77 FF FF FF FF FF FF 
   299)    102656.6  Rx     18F02300  8  FF 76 FF FF FF FF FF FF 
   300)    102656.9  Rx     18F02300  8  FF 76 FF FF FF FF FF FF 
   301)    102657.2  Rx     18F02300  8  FF 76 FF FF FF FF FF FF 
   302)    102657.5  Rx     18F02300  8  FF 76 FF FF FF FF FF FF 
   303)    102657.9  Rx     18F02300  8  FF 76 FF FF FF FF FF FF 
   304)    102658.2  Rx     18F02300  8  FF 76 FF FF FF FF FF FF 
   305)    102658.5  Rx     18F02300  8  FF 76 FF FF FF FF FF FF 
   306)    102658.8  Rx     18F02300  8  FF 76 FF FF FF FF FF FF 
   307)    102659.1  Rx     18F02300  8  FF 76 FF FF FF FF FF FF 
   308)    102659.5  Rx     18FEF700  8  77 FF FF 76 FF 76 FF FF 
   309)    102659.8  Rx     18FEBD00  8  77 FF FF 76 FF FF FF FF 
   310)    102660.1  Rx     18FEBD00  8  77 FF FF 76 FF FF FF FF 
   311)    102660.4  Rx     18FEBD00  8  77 FF FF 76 FF FF FF FF 
   312)    102660.8  Rx     18FEBD00  8  77 FF FF 76 FF FF FF FF 
   313)    102661.1  Rx     18FEBD00  8  77 FF FF 76 FF FF FF FF 
   314)    102661.4  Rx     18FEBD00  8  77 FF FF 76 FF FF FF FF 
   315)    102661.7  Rx     18FEBD00  8  77 FF FF 76 FF FF FF FF 
   316)    102662.0  Rx     18FEBD00  8  77 FF FF 76 FF FF FF FF 
   317)    102662.3  Rx     18FEBD00  8  77 FF FF 76 FF FF FF FF 
   318)    102662.6  Rx     18FEA600  8  FF 76 5E 79 FF FF FF FF 
   319)    102663.0  Rx     18FEA600  8  FF 76 5E 79 FF FF FF FF 
   320)    102663.3  Rx     18FEA600  8  FF 76 5E 79 FF FF FF FF 
   321)    102663.6  Rx     18FEA600  8  FF 76 5E 79 FF FF FF FF 
   322)    102663.9  Rx     18FEA600  8  FF 76 5E 79 FF FF FF FF 
   323)    102664.2  Rx     18FEA600  8  FF 76 5E 79 FF FF FF FF 
   324)    102664.5  Rx     18FEA600  8  FF 76 5E 79 FF FF FF FF 
   325)    102664.8  Rx     18FEA600  8  FF 76 5E 79 FF FF FF FF 
   326)    102665.2  Rx     18FEA600  8  FF 76 5E 79 FF FF FF FF 
   327)    102665.5  Rx     18FEA600  8  FF 76 5E 79 FF FF FF FF 
   328)    102665.8  Rx     18FEA600  8  FF 76 5E 79 FF FF FF FF 
   329)    102666.1  Rx     18FEA600  8  FF 76 5E 79 FF FF FF FF 
   330)    102666.4  Rx     18FEA600  8  FF 76 5E 79 FF FF FF FF 
   331)    102666.7  Rx     18FEA600  8  FF 76 5E 79 FF FF FF FF 
   332)    102667.0  Rx     18FEA600  8  FF 76 5E 79 FF FF FF FF 
   333)    102667.3  Rx     18FEA600  8  FF 76 5E 79 FF FF FF FF 
   334)    102667.6  Rx     18FEA600  8  FF 76 5E 79 FF FF FF FF 
   335)    102667.9  Rx     18FEA600  8  FF 76 5E 79 FF FF FF FF 
   336)    102668.3  Rx     18FEA600  8  FF 76 5E 79 FF FF FF FF 
   337)    102668.6  Rx     18FEA600  8  FF 76 5E 79 FF FF FF FF 
   338)    102668.9  Rx     18FEA600  8  FF 76 5E 79 FF FF FF FF 
   339)    102669.2  Rx     18FEA600  8  FF 76 5E 79 FF FF FF FF 
   340)    102669.5  Rx     18FEA600  8  FF 76 5E 79 FF FF FF FF 
   341)    102669.8  Rx     18FEA600  8  FF 76 5E 79 FF FF FF FF 
   342)    102670.1  Rx     18FEA600  8  FF 76 5E 79 FF FF FF FF 
   343)    102670.5  Rx     18FEA600  8  FF 76 5E 79 FF FF FF FF 
   344)    102670.8  Rx     18FEA600  8  FF 76 5E 79 FF FF FF FF 
   345)    102671.0  Rx     18FEA600  8  FF 76 5E 79 FF FF FF FF 
   346)    102671.3  Rx     18FEA600  8  FF 76 5E 79 FF FF FF FF 
   347)    102671.7  Rx     18FEA600  8  FF 76 5E 79 FF FF FF FF 
   348)    102672.0  Rx     18FEA600  8  FF 76 5E 79 FF FF FF FF 
   349)    102672.3  Rx     18FEA600  8  FF 76 5E 79 FF FF FF FF 
   350)    102672.6  Rx     18FEA600  8  FF 76 5E 79 FF FF FF FF 
   351)    102672.9  Rx     18FEA600  8  FF 76 5E 79 FF FF FF FF 
   352)    102673.2  Rx     18FEA600  8  FF 76 5E 79 FF FF FF FF 
   353)    102673.5  Rx     18FEA600  8  FF 76 5E 79 FF FF FF FF 
   354)    102673.9  Rx     18FEA600  8  FF 76 5E 79 FF FF FF FF 
   355)    102674.2  Rx     18FEA600  8  FF 76 5E 79 FF FF FF FF 
   356)    102674.5  Rx     18FEA600  8  FF 76 5E 79 FF FF FF FF 
   357)    102674.8  Rx     18FEA600  8  FF 76 5E 79 FF FF FF FF 
   358)    102675.1  Rx     18FEA600  8  FF 76 5E 79 FF FF FF FF 
   359)    102675.4  Rx     18FEA600  8  FF 76 5E 79 FF FF FF FF 
   360)    102675.7  Rx     18FEA600  8  FF 76 5E 79 FF FF FF FF 
   361)    102676.0  Rx     18FEA600  8  FF 76 5E 79 FF FF FF FF 
   362)    102676.3  Rx     18FEA600  8  FF 76 5E 79 FF FF FF FF 
   363)    102676.6  Rx     18FEA600  8  FF 76 5E 79 FF FF FF FF 
   364)    102677.0  Rx     18FEA600  8  FF 76 5E 79 FF FF FF FF 
   365)    102677.3  Rx     18FEA600  8  FF 76 5E 79 FF FF FF FF 
   366)    102677.6  Rx     18FEA600  8  FF 76 5E 79 FF FF FF FF 
   367)    102677.9  Rx     18FEA600  8  FF 76 5E 79 FF FF FF FF 
   368)    102678.2  Rx     18FEA600  8  FF 76 5E 79 FF FF FF FF 
   369)    102678.5  Rx     18FEA600  8  FF 76 5E 79 FF FF FF FF 
   370)    102678.8  Rx     18FEA600  8  FF 76 5E 79 FF FF FF FF 
   371)    102679.2  Rx     18FEA600  8  FF 76 5E 79 FF FF FF FF 
   372)    102679.5  Rx     18FEA600  8  FF 76 5E 79 FF FF FF FF 
   373)    102679.8  Rx     18FEA600  8  FF 76 5E 79 FF FF FF FF 
   374)    102680.1  Rx     18FEA600  8  FF 76 5E 79 FF FF FF FF 
   375)    102680.4  Rx     18FEA600  8  FF 76 5E 79 FF FF FF FF 
   376)    102680.7  Rx     18FEA600  8  FF 76 5E 79 FF FF FF FF 
   377)    102681.0  Rx     18FEA600  8  FF 76 5E 79 FF FF FF FF 
   378)    102681.3  Rx     18FEA600  8  FF 76 5E 79 FF FF FF FF 
   379)    102681.6  Rx     18FEA600  8  FF 76 5E 79 FF FF FF FF 
   380)    102681.9  Rx     18FEA600  8  FF 76 5E 79 FF FF FF FF 
   381)    102682.3  Rx     18FEA600  8  FF 76 5E 79 FF FF FF FF 
   382)    102682.6  Rx     0CF00200  8  FF 77 3C FF FF FF FF FF 
   383)    102682.9  Rx     0CF00200  8  FF 77 3C FF FF FF FF FF 
   384)    102683.2  Rx     0CF00200  8  FF 77 3C FF FF FF FF FF 
   385)    102683.5  Rx     0CF00200  8  FF 77 3C FF FF FF FF FF 
   386)    102683.8  Rx     0CF00200  8  FF 77 3C FF FF FF FF FF 
   387)    102684.1  Rx     0CF00200  8  FF 77 3C FF FF FF FF FF 
   388)    102684.4  Rx     0CF00200  8  FF 77 3C FF FF FF FF FF 
   389)    102684.8  Rx     0CF00200  8  FF 77 3C FF FF FF FF FF 
   390)    102685.1  Rx     0CF00200  8  FF 77 3C FF FF FF FF FF 
   391)    102685.4  Rx     0CF00200  8  FF 77 3C FF FF FF FF FF 
   392)    102685.7  Rx     0CF00900  8  CD 77 FF BF 77 CC 77 77 
   393)    102686.0  Rx     0CF00503  8  FF FF FF 77 FF FF FF FF 
   394)    102686.3  Rx     0CF00503  8  FF FF FF 77 FF FF FF FF 
   395)    102686.7  Rx     0CF00503  8  FF FF FF 77 FF FF FF FF 
   396)    102687.0  Rx     0CF00503  8  FF FF FF 77 FF FF FF FF 
   397)    102687.3  Rx     0CF00503  8  FF FF FF 77 FF FF FF FF 
   398)    102687.6  Rx     0CF00503  8  FF FF FF 77 FF FF FF FF 
   399)    102687.9  Rx     0CF00503  8  FF FF FF 77 FF FF FF FF 
   400)    102688.2  Rx     0CF00503  8  FF FF FF 77 FF FF FF FF 
   401)    102688.5  Rx     18F0010B  8  FF 77 FF FF FF FF FF FF 
   402)    102688.9  Rx     0CF00000  8  FF 3C FF FF FF FF FF FF 
   403)    102689.2  Rx     0CF00000  8  FF 3C FF FF FF FF FF FF 
   404)    102689.5  Rx     0CF00000  8  FF 3C FF FF FF FF FF FF 
   405)    102689.9  Rx     0CF00000  8  FF 3C FF FF FF FF FF FF 
   406)    102690.2  Rx     0CF00000  8  FF 3C FF FF FF FF FF FF 
   407)    102690.5  Rx     0CF00000  8  FF 3C FF FF FF FF FF FF 
   408)    102690.8  Rx     0CF00000  8  FF 3C FF FF FF FF FF FF 
   409)    102691.1  Rx     0CF00000  8  FF 3C FF FF FF FF FF FF 
   410)    102691.6  Rx     18FE5600  8  77 77 FF FF FF FF FF FF 
   411)    102691.9  Rx     18FDB300  8  CD 77 CD 77 FF FF FF FF 
   412)    102692.2  Rx     18FDB300  8  CD 77 CD 77 FF FF FF FF 
   413)    102692.5  Rx     18FDB300  8  CD 77 CD 77 FF FF FF FF 
   414)    102692.8  Rx     18FDB300  8  CD 77 CD 77 FF FF FF FF 
   415)    102693.1  Rx     18FDB300  8  CD 77 CD 77 FF FF FF FF 
   416)    102693.4  Rx     18FDB300  8  CD 77 CD 77 FF FF FF FF 
   417)    102693.7  Rx     18FDB300  8  CD 77 CD 77 FF FF FF FF 
   418)    102694.0  Rx     18FDB300  8  CD 77 CD 77 FF FF FF FF 
   419)    102694.4  Rx     18FDB300  8  CD 77 CD 77 FF FF FF FF 
   420)    102694.7  Rx     18FEBD00  8  77 FF CD 77 FF FF FF FF 
   421)    102695.0  Rx     18FEBD00  8  77 FF CD 77 FF FF FF FF 
   422)    102695.3  Rx     18FEBD00  8  77 FF CD 77 FF FF FF FF 
   423)    102695.6  Rx     18FEBD00  8  77 FF CD 77 FF FF FF FF 
   424)    102696.0  Rx     18FEBD00  8  77 FF CD 77 FF FF FF FF 
   425)    102696.3  Rx     18FEBD00  8  77 FF CD 77 FF FF FF FF 
   426)    102696.6  Rx     18FEBD00  8  77 FF CD 77 FF FF FF FF 
   427)    102696.9  Rx     18FEBD00  8  77 FF CD 77 FF FF FF FF 
   428)    102697.2  Rx     18FEBD00  8  77 FF CD 77 FF FF FF FF 
   429)    102697.5  Rx     18FEFF00  8  FD FF FF FF FF FF FF FF 
   430)    102697.8  Rx     18FEF200  8  CD 77 CD 77 CD 77 FF FF 
   431)    102698.1  Rx     18FEF200  8  CD 77 CD 77 CD 77 FF FF 
   432)    102698.5  Rx     18FEF200  8  CD 77 CD 77 CD 77 FF FF 
   433)    102698.8  Rx     18FEF200  8  CD 77 CD 77 CD 77 FF FF 
   434)    102699.1  Rx     18FEF200  8  CD 77 CD 77 CD 77 FF FF 
   435)    102699.4  Rx     18FEF200  8  CD 77 CD 77 CD 77 FF FF 
   436)    102699.7  Rx     18FEF200  8  CD 77 CD 77 CD 77 FF FF 
   437)    102700.0  Rx     18FEF200  8  CD 77 CD 77 CD 77 FF FF 
   438)    102700.3  Rx     18FEF200  8  CD 77 CD 77 CD 77 FF FF 
   439)    102700.6  Rx     0CF00400  8  F7 78 78 4D 78 FF FF 78 
   440)    102700.9  Rx     0CF00400  8  F7 78 78 4D 78 FF FF 78 
   441)    102701.2  Rx     0CF00400  8  F7 78 78 4D 78 FF FF 78 
   442)    102701.5  Rx     0CF00400  8  F7 78 78 4D 78 FF FF 78 
   443)    102701.8  Rx     0CF00400  8  F7 78 78 4D 78 FF FF 78 
   444)    102702.2  Rx     0CF00400  8  F7 78 78 4D 78 FF FF 78 
   445)    102702.5  Rx     0CF00400  8  F7 78 78 4D 78 FF FF 78 
   446)    102702.7  Rx     18FEEE00  8  78 4E 78 FF FF FF FF FF 
   447)    102703.0  Rx     18FEEE00  8  78 4E 78 FF FF FF FF FF 
   448)    102703.4  Rx     18FEEE00  8  78 4E 78 FF FF FF FF FF 
   449)    102703.7  Rx     18FEEE00  8  78 4E 78 FF FF FF FF FF 
   450)    102704.0  Rx     18FEEE00  8  78 4E 78 FF FF FF FF FF 
   451)    102704.3  Rx     18FEEE00  8  78 4E 78 FF FF FF FF FF 
   452)    102704.6  Rx     18FEEE00  8  78 4E 78 FF FF FF FF FF 
   453)    102704.9  Rx     18FEEE00  8  78 4E 78 FF FF FF FF FF 
   454)    102705.3  Rx     18FEEE00  8  78 4E 78 FF FF FF FF FF 
   455)    102705.7  Rx     0CF00900  8  4D 78 FF 3F 78 4D 78 78 
   456)    102706.0  Rx     0CF00503  8  FF FF FF 78 FF FF FF FF 
   457)    102706.3  Rx     0CF00503  8  FF FF FF 78 FF FF FF FF 
   458)    102706.6  Rx     0CF00503  8  FF FF FF 78 FF FF FF FF 
   459)    102706.9  Rx     0CF00503  8  FF FF FF 78 FF FF FF FF 
   460)    102707.2  Rx     0CF00503  8  FF FF FF 78 FF FF FF FF 
   461)    102707.5  Rx     0CF00503  8  FF FF FF 78 FF FF FF FF 
   462)    102707.9  Rx     0CF00503  8  FF FF FF 78 FF FF FF FF 
   463)    102708.2  Rx     0CF00503  8  FF FF FF 78 FF FF FF FF 
   464)    102708.5  Rx     0CF00503  8  FF FF FF 78 FF FF FF FF 
   465)    102708.8  Rx     0CF00000  8  FF 3C FF FF FF FF FF FF 
   466)    102709.1  Rx     0CF00000  8  FF 3C FF FF FF FF FF FF 
   467)    102709.4  Rx     0CF00000  8  FF 3C FF FF FF FF FF FF 
   468)    102709.8  Rx     0CF00000  8  FF 3C FF FF FF FF FF FF 
   469)    102710.1  Rx     0CF00000  8  FF 3C FF FF FF FF FF FF 
   470)    102710.4  Rx     0CF00000  8  FF 3C FF FF FF FF FF FF 
   471)    102710.8  Rx     0CF00000  8  FF 3C FF FF FF FF FF FF 
   472)    102711.1  Rx     0CF00000  8  FF 3C FF FF FF FF FF FF 
   473)    102711.4  Rx     0CF00000  8  FF 3C FF FF FF FF FF FF 
   474)    102711.7  Rx     18FDB300  8  4E 78 4E 78 FF FF FF FF 
   475)    102712.0  Rx     18FDB300  8  4E 78 4E 78 FF FF FF FF 
   476)    102712.3  Rx     18FDB300  8  4E 78 4E 78 FF FF FF FF 
   477)    102712.6  Rx     18FDB300  8  4E 78 4E 78 FF FF FF FF 
   478)    102712.9  Rx     18FDB300  8  4E 78 4E 78 FF FF FF FF 
   479)    102713.2  Rx     18FDB300  8  4E 78 4E 78 FF FF FF FF 
   480)    102713.6  Rx     18FDB300  8  4E 78 4E 78 FF FF FF FF 
   481)    102713.9  Rx     18FDB300  8  4E 78 4E 78 FF FF FF FF 
   482)    102714.2  Rx     18FDB300  8  4E 78 4E 78 FF FF FF FF 
   483)    102714.5  Rx     18FDB300  8  4E 78 4E 78 FF FF FF FF 
   484)    102714.8  Rx     18FEFC00  8  78 78 FF FF FF FF FF FF 
   485)    102715.1  Rx     18FEA600  8  4D 78 B3 7A FF FF FF FF 
   486)    102715.5  Rx     18FEA600  8  4D 78 B3 7A FF FF FF FF 
   487)    102715.8  Rx     18FEA600  8  4D 78 B3 7A FF FF FF FF 
   488)    102716.1  Rx     18FEA600  8  4D 78 B3 7A FF FF FF FF 
   489)    102716.4  Rx     18FEA600  8  4D 78 B3 7A FF FF FF FF 
   490)    102716.7  Rx     18FEA600  8  4D 78 B3 7A FF FF FF FF 
   491)    102717.0  Rx     18FEA600  8  4D 78 B3 7A FF FF FF FF 
   492)    102717.3  Rx     18FEA600  8  4D 78 B3 7A FF FF FF FF 
   493)    102717.7  Rx     18FEF200  8  4D 78 4E 78 4E 78 FF FF 
   494)    102718.0  Rx     18FEF200  8  4D 78 4E 78 4E 78 FF FF 
   495)    102718.3  Rx     18FEF200  8  4D 78 4E 78 4E 78 FF FF 
   496)    102718.6  Rx     18FEF200  8  4D 78 4E 78 4E 78 FF FF 
   497)    102718.9  Rx     18FEF200  8  4D 78 4E 78 4E 78 FF FF 
   498)    102719.2  Rx     18FEF200  8  4D 78 4E 78 4E 78 FF FF 
   499)    102719.5  Rx     18FEF200  8  4D 78 4E 78 4E 78 FF FF 
   500)    102719.8  Rx     18FEF200  8  4D 78 4E 78 4E 78 FF FF 
   501)    102720.1  Rx     18FEF200  8  4D 78 4E 78 4E 78 FF FF 
   502)    102720.4  Rx     0CF00200  8  FF 78 3C FF FF FF FF FF 
   503)    102720.8  Rx     0CF00200  8  FF 78 3C FF FF FF FF FF 
   504)    102721.1  Rx     0CF00200  8  FF 78 3C FF FF FF FF FF 
   505)    102721.4  Rx     0CF00200  8  FF 78 3C FF FF FF FF FF 
   506)    102721.7  Rx     0CF00200  8  FF 78 3C FF FF FF FF FF 
   507)    102722.0  Rx     0CF00200  8  FF 78 3C FF FF FF FF FF 
   508)    102722.3  Rx     0CF00200  8  FF 78 3C FF FF FF FF FF 
   509)    102722.7  Rx     18FEEF00  8  78 FF FF 78 FF FF FF FF 
   510)    102723.0  Rx     18FEEF00  8  78 FF FF 78 FF FF FF FF 
   511)    102723.3  Rx     18FEEF00  8  78 FF FF 78 FF FF FF FF 
   512)    102723.6  Rx     18FEEF00  8  78 FF FF 78 FF FF FF FF 
   513)    102723.9  Rx     18FEEF00  8  78 FF FF 78 FF FF FF FF 
   514)    102724.3  Rx     18FEEF00  8  78 FF FF 78 FF FF FF FF 
   515)    102724.6  Rx     18FEEF00  8  78 FF FF 78 FF FF FF FF 
   516)    102724.9  Rx     18FEEF00  8  78 FF FF 78 FF FF FF FF 
   517)    102725.2  Rx     18FEEF00  8  78 FF FF 78 FF FF FF FF 
   518)    102725.5  Rx     18FEEF00  8  78 FF FF 78 FF FF FF FF 
   519)    102725.8  Rx     0CF00503  8  FF FF FF 78 FF FF FF FF 
   520)    102726.1  Rx     0CF00503  8  FF FF FF 78 FF FF FF FF 
   521)    102726.4  Rx     0CF00503  8  FF FF FF 78 FF FF FF FF 
   522)    102726.8  Rx     0CF00503  8  FF FF FF 78 FF FF FF FF 
   523)    102727.1  Rx     0CF00503  8  FF FF FF 78 FF FF FF FF 
   524)    102727.4  Rx     0CF00503  8  FF FF FF 78 FF FF FF FF 
   525)    102727.7  Rx     0CF00503  8  FF FF FF 78 FF FF FF FF 
   526)    102728.0  Rx     0CF00503  8  FF FF FF 78 FF FF FF FF 
   527)    102728.3  Rx     0CF00503  8  FF FF FF 78 FF FF FF FF 
   528)    102728.6  Rx     0CF00000  8  FF 3C FF FF FF FF FF FF 
   529)    102729.0  Rx     0CF00000  8  FF 3C FF FF FF FF FF FF 
   530)    102729.3  Rx     0CF00000  8  FF 3C FF FF FF FF FF FF 
   531)    102729.6  Rx     0CF00000  8  FF 3C FF FF FF FF FF FF 
   532)    102729.9  Rx     0CF00000  8  FF 3C FF FF FF FF FF FF 
   533)    102730.3  Rx     0CF00000  8  FF 3C FF FF FF FF FF FF 
   534)    102730.6  Rx     0CF00000  8  FF 3C FF FF FF FF FF FF 
   535)    102730.9  Rx     0CF00000  8  FF 3C FF FF FF FF FF FF 
   536)    102731.3  Rx     0CF00000  8  FF 3C FF FF FF FF FF FF 
   537)    102731.5  Rx     0CF00000  8  FF 3C FF FF FF FF FF FF 
   538)    102731.8  Rx     18FEF500  8  78 CE 78 CE 78 78 CE 78 
   539)    102732.2  Rx     18FEBD00  8  78 FF CE 78 FF FF FF FF 
   540)    102732.5  Rx     18FEBD00  8  78 FF CE 78 FF FF FF FF 
   541)    102732.8  Rx     18FEBD00  8  78 FF CE 78 FF FF FF FF 
   542)    102733.1  Rx     18FEBD00  8  78 FF CE 78 FF FF FF FF 
   543)    102733.4  Rx     18FEBD00  8  78 FF CE 78 FF FF FF FF 
   544)    102733.8  Rx     18FEBD00  8  78 FF CE 78 FF FF FF FF 
   545)    102734.1  Rx     18FEBD00  8  78 FF CE 78 FF FF FF FF 
   546)    102734.4  Rx     18FEBD00  8  78 FF CE 78 FF FF FF FF 
   547)    102734.9  Rx     18FEE600  8  73 1C 0B 06 3E 78 FF FF 
   548)    102735.2  Rx     18FEA600  8  CE 78 36 7B FF FF FF FF 
   549)    102735.5  Rx     18FEA600  8  CE 78 36 7B FF FF FF FF 
   550)    102735.8  Rx     18FEA600  8  CE 78 36 7B FF FF FF FF 
   551)    102736.1  Rx     18FEA600  8  CE 78 36 7B FF FF FF FF 
   552)    102736.5  Rx     18FEA600  8  CE 78 36 7B FF FF FF FF 
   553)    102736.8  Rx     18FEA600  8  CE 78 36 7B FF FF FF FF 
   554)    102737.1  Rx     18FEA600  8  CE 78 36 7B FF FF FF FF 
   555)    102737.4  Rx     18FEA600  8  CE 78 36 7B FF FF FF FF 
   556)    102740.1  Rx     0CF00400  8  F7 79 79 4E 79 FF FF 79 
   557)    102740.4  Rx     0CF00200  8  FF 79 3C FF FF FF FF FF 
   558)    102740.7  Rx     0CF00200  8  FF 79 3C FF FF FF FF FF 
   559)    102741.1  Rx     0CF00200  8  FF 79 3C FF FF FF FF FF 
   560)    102741.4  Rx     0CF00200  8  FF 79 3C FF FF FF FF FF 
   561)    102741.7  Rx     0CF00200  8  FF 79 3C FF FF FF FF FF 
   562)    102742.0  Rx     0CF00200  8  FF 79 3C FF FF FF FF FF 
   563)    102742.3  Rx     0CF00200  8  FF 79 3C FF FF FF FF FF 
   564)    102742.7  Rx     18FEF600  8  FF 79 FF FF FF FF FF FF 
   565)    102743.0  Rx     0CF00900  8  4E 79 FF 40 79 4E 79 79 
   566)    102743.3  Rx     0CF00900  8  4E 79 FF 40 79 4E 79 79 
   567)    102743.6  Rx     0CF00900  8  4E 79 FF 40 79 4E 79 79 
   568)    102743.9  Rx     0CF00900  8  4E 79 FF 40 79 4E 79 79 
   569)    102744.2  Rx     0CF00900  8  4E 79 FF 40 79 4E 79 79 
   570)    102744.5  Rx     0CF00900  8  4E 79 FF 40 79 4E 79 79 
   571)    102744.8  Rx     0CF00900  8  4E 79 FF 40 79 4E 79 79 
   572)    102745.1  Rx     0CF00900  8  4E 79 FF 40 79 4E 79 79 
   573)    102745.4  Rx     0CF00900  8  4E 79 FF 40 79 4E 79 79 
   574)    102745.7  Rx     18FEF803  8  FF FF FF 79 4F 79 FF FF 
   575)    102746.0  Rx     18F0010B  8  FF 79 FF FF FF FF FF FF 
   576)    102746.4  Rx     18F0010B  8  FF 79 FF FF FF FF FF FF 
   577)    102746.7  Rx     18F0010B  8  FF 79 FF FF FF FF FF FF 
   578)    102747.0  Rx     18F0010B  8  FF 79 FF FF FF FF FF FF 
   579)    102747.3  Rx     18F0010B  8  FF 79 FF FF FF FF FF FF 
   580)    102747.6  Rx     18F0010B  8  FF 79 FF FF FF FF FF FF 
   581)    102747.9  Rx     18F0010B  8  FF 79 FF FF FF FF FF FF 
   582)    102748.2  Rx     18F0010B  8  FF 79 FF FF FF FF FF FF 
   583)    102748.5  Rx     18F0010B  8  FF 79 FF FF FF FF FF FF 
   584)    102748.8  Rx     18F02300  8  4E 79 FF FF FF FF FF FF 
   585)    102749.2  Rx     18F02300  8  4E 79 FF FF FF FF FF FF 
   586)    102749.5  Rx     18F02300  8  4E 79 FF FF FF FF FF FF 
   587)    102749.8  Rx     18F02300  8  4E 79 FF FF FF FF FF FF 
   588)    102750.1  Rx     18F02300  8  4E 79 FF FF FF FF FF FF 
   589)    102750.4  Rx     18F02300  8  4E 79 FF FF FF FF FF FF 
   590)    102750.7  Rx     18F02300  8  4E 79 FF FF FF FF FF FF 
   591)    102751.0  Rx     18F02300  8  4E 79 FF FF FF FF FF FF 
   592)    102751.3  Rx     18F02300  8  4E 79 FF FF FF FF FF FF 
   593)    102751.8  Rx     18FEF700  8  79 FF 4E 79 4E 79 FF FF 
   594)    102752.1  Rx     18FEBD00  8  79 FF 4E 79 FF FF FF FF 
   595)    102752.4  Rx     18FEBD00  8  79 FF 4E 79 FF FF FF FF 
   596)    102752.7  Rx     18FEBD00  8  79 FF 4E 79 FF FF FF FF 
   597)    102753.1  Rx     18FEBD00  8  79 FF 4E 79 FF FF FF FF 
   598)    102753.4  Rx     18FEBD00  8  79 FF 4E 79 FF FF FF FF 
   599)    102753.7  Rx     18FEBD00  8  79 FF 4E 79 FF FF FF FF 
   600)    102753.9  Rx     18FEBD00  8  79 FF 4E 79 FF FF FF FF 
   601)    102754.3  Rx     18FEBD00  8  79 FF 4E 79 FF FF FF FF 
   602)    102754.6  Rx     18FEBD00  8  79 FF 4E 79 FF FF FF FF 
   603)    102754.9  Rx     18FEA600  8  4E 79 B9 7B FF FF FF FF 
   604)    102755.2  Rx     18FEA600  8  4E 79 B9 7B FF FF FF FF 
   605)    102755.5  Rx     18FEA600  8  4E 79 B9 7B FF FF FF FF 
   606)    102755.8  Rx     18FEA600  8  4E 79 B9 7B FF FF FF FF 
   607)    102756.1  Rx     18FEA600  8  4E 79 B9 7B FF FF FF FF 
   608)    102756.4  Rx     18FEA600  8  4E 79 B9 7B FF FF FF FF 
   609)    102756.8  Rx     18FEA600  8  4E 79 B9 7B FF FF FF FF 
   610)    102757.1  Rx     18FEA600  8  4E 79 B9 7B FF FF FF FF 
   611)    102757.4  Rx     18FEA600  8  4E 79 B9 7B FF FF FF FF 
   612)    102757.7  Rx     18FEA600  8  4E 79 B9 7B FF FF FF FF 
   613)    102758.0  Rx     18FEA600  8  4E 79 B9 7B FF FF FF FF 
   614)    102758.3  Rx     18FEA600  8  4E 79 B9 7B FF FF FF FF 
   615)    102758.6  Rx     18FEA600  8  4E 79 B9 7B FF FF FF FF 
   616)    102758.9  Rx     18FEA600  8  4E 79 B9 7B FF FF FF FF 
   617)    102759.2  Rx     18FEA600  8  4E 79 B9 7B FF FF FF FF 
   618)    102759.5  Rx     18FEA600  8  4E 79 B9 7B FF FF FF FF 
   619)    102759.8  Rx     18FEA600  8  4E 79 B9 7B FF FF FF FF 
   620)    102760.1  Rx     18FEA600  8  4E 79 B9 7B FF FF FF FF 
   621)    102760.5  Rx     18FEA600  8  4E 79 B9 7B FF FF FF FF 
   622)    102760.8  Rx     18FEA600  8  4E 79 B9 7B FF FF FF FF 
   623)    102761.1  Rx     18FEA600  8  4E 79 B9 7B FF FF FF FF 
   624)    102761.4  Rx     18FEA600  8  4E 79 B9 7B FF FF FF FF 
   625)    102761.7  Rx     18FEA600  8  4E 79 B9 7B FF FF FF FF 
   626)    102762.0  Rx     18FEA600  8  4E 79 B9 7B FF FF FF FF 
   627)    102762.3  Rx     18FEA600  8  4E 79 B9 7B FF FF FF FF 
   628)    102762.6  Rx     18FEA600  8  4E 79 B9 7B FF FF FF FF 
   629)    102763.0  Rx     18FEA600  8  4E 79 B9 7B FF FF FF FF 
   630)    102763.3  Rx     18FEA600  8  4E 79 B9 7B FF FF FF FF 
   631)    102763.5  Rx     18FEA600  8  4E 79 B9 7B FF FF FF FF 
   632)    102763.8  Rx     18FEA600  8  4E 79 B9 7B FF FF FF FF 
   633)    102764.2  Rx     18FEA600  8  4E 79 B9 7B FF FF FF FF 
   634)    102764.5  Rx     18FEA600  8  4E 79 B9 7B FF FF FF FF 
   635)    102764.8  Rx     18FEA600  8  4E 79 B9 7B FF FF FF FF 
   636)    102765.1  Rx     18FEA600  8  4E 79 B9 7B FF FF FF FF 
   637)    102765.4  Rx     18FEA600  8  4E 79 B9 7B FF FF FF FF 
   638)    102765.7  Rx     18FEA600  8  4E 79 B9 7B FF FF FF FF 
   639)    102766.0  Rx     18FEA600  8  4E 79 B9 7B FF FF FF FF 
   640)    102766.3  Rx     18FEA600  8  4E 79 B9 7B FF FF FF FF 
   641)    102766.6  Rx     18FEA600  8  4E 79 B9 7B FF FF FF FF 
   642)    102767.0  Rx     18FEA600  8  4E 79 B9 7B FF FF FF FF 
   643)    102767.3  Rx     18FEA600  8  4E 79 B9 7B FF FF FF FF 
   644)    102767.6  Rx     18FEA600  8  4E 79 B9 7B FF FF FF FF 
   645)    102767.9  Rx     18FEA600  8  4E 79 B9 7B FF FF FF FF 
   646)    102768.2  Rx     18FEA600  8  4E 79 B9 7B FF FF FF FF 
   647)    102768.5  Rx     18FEA600  8  4E 79 B9 7B FF FF FF FF 
   648)    102768.8  Rx     18FEA600  8  4E 79 B9 7B FF FF FF FF 
   649)    102769.1  Rx     18FEA600  8  4E 79 B9 7B FF FF FF FF 
   650)    102769.4  Rx     18FEA600  8  4E 79 B9 7B FF FF FF FF 
   651)    102769.7  Rx     18FEA600  8  4E 79 B9 7B FF FF FF FF 
   652)    102770.0  Rx     18FEA600  8  4E 79 B9 7B FF FF FF FF 
   653)    102770.3  Rx     18FEA600  8  4E 79 B9 7B FF FF FF FF 
   654)    102770.7  Rx     18FEA600  8  4E 79 B9 7B FF FF FF FF 
   655)    102771.0  Rx     18FEA600  8  4E 79 B9 7B FF FF FF FF 
   656)    102771.3  Rx     18FEA600  8  4E 79 B9 7B FF FF FF FF 
   657)    102771.6  Rx     18FEA600  8  4E 79 B9 7B FF FF FF FF 
   658)    102771.9  Rx     18FEA600  8  4E 79 B9 7B FF FF FF FF 
   659)    102772.2  Rx     18FEA600  8  4E 79 B9 7B FF FF FF FF 
   660)    102772.5  Rx     18FEA600  8  4E 79 B9 7B FF FF FF FF 
   661)    102772.8  Rx     18FEA600  8  4E 79 B9 7B FF FF FF FF 
   662)    102773.1  Rx     18FEA600  8  4E 79 B9 7B FF FF FF FF 
   663)    102773.4  Rx     18FEA600  8  4E 79 B9 7B FF FF FF FF 
   664)    102773.7  Rx     18FEA600  8  4E 79 B9 7B FF FF FF FF 
   665)    102774.0  Rx     18FEA600  8  4E 79 B9 7B FF FF FF FF 
   666)    102774.4  Rx     18FEA600  8  4E 79 B9 7B FF FF FF FF 
   667)    102774.7  Rx     18FEA600  8  4E 79 B9 7B FF FF FF FF 
   668)    102775.0  Rx     18FEA600  8  4E 79 B9 7B FF FF FF FF 
   669)    102775.3  Rx     18FEA600  8  4E 79 B9 7B FF FF FF FF 
   670)    102775.6  Rx     18FEA600  8  4E 79 B9 7B FF FF FF FF 
   671)    102775.9  Rx     18FEA600  8  4E 79 B9 7B FF FF FF FF 
   672)    102776.2  Rx     18FEA600  8  4E 79 B9 7B FF FF FF FF 
   673)    102776.5  Rx     18FEA600  8  4E 79 B9 7B FF FF FF FF 
   674)    102776.8  Rx     18FEA600  8  4E 79 B9 7B FF FF FF FF 
   675)    102777.2  Rx     18FEA600  8  4E 79 B9 7B FF FF FF FF 
   676)    102777.5  Rx     18FEA600  8  4E 79 B9 7B FF FF FF FF 
   677)    102777.8  Rx     18FEA600  8  4E 79 B9 7B FF FF FF FF 
   678)    102778.1  Rx     18FEA600  8  4E 79 B9 7B FF FF FF FF 
   679)    102778.4  Rx     18FEA600  8  4E 79 B9 7B FF FF FF FF 
   680)    102778.7  Rx     18FEA600  8  4E 79 B9 7B FF FF FF FF 
   681)    102779.0  Rx     18FEA600  8  4E 79 B9 7B FF FF FF FF 
   682)    102779.3  Rx     18FEA600  8  4E 79 B9 7B FF FF FF FF 
   683)    102779.6  Rx     18FEA600  8  4E 79 B9 7B FF FF FF FF 
   684)    102779.9  Rx     18FEA600  8  4E 79 B9 7B FF FF FF FF 
   685)    102780.2  Rx     18FEA600  8  4E 79 B9 7B FF FF FF FF 
   686)    102780.5  Rx     18FEA600  8  4E 79 B9 7B FF FF FF FF 
   687)    102780.9  Rx     18FEA600  8  4E 79 B9 7B FF FF FF FF 
   688)    102781.2  Rx     18FEA600  8  4E 79 B9 7B FF FF FF FF 
   689)    102781.5  Rx     18FEA600  8  4E 79 B9 7B FF FF FF FF 
   690)    102781.8  Rx     18FEA600  8  4E 79 B9 7B FF FF FF FF 
   691)    102782.1  Rx     18FEA600  8  4E 79 B9 7B FF FF FF FF 
   692)    102782.4  Rx     18FEA600  8  4E 79 B9 7B FF FF FF FF 
   693)    102782.7  Rx     18FEA600  8  4E 79 B9 7B FF FF FF FF 
   694)    102783.0  Rx     18FEA600  8  4E 79 B9 7B FF FF FF FF 
   695)    102783.3  Rx     18FEA600  8  4E 79 B9 7B FF FF FF FF 
   696)    102783.6  Rx     18FEA600  8  4E 79 B9 7B FF FF FF FF 
   697)    102783.9  Rx     18FEA600  8  4E 79 B9 7B FF FF FF FF 
   698)    102784.2  Rx     18FEA600  8  4E 79 B9 7B FF FF FF FF 
   699)    102784.6  Rx     18FEA600  8  4E 79 B9 7B FF FF FF FF 
   700)    102784.9  Rx     18FEA600  8  4E 79 B9 7B FF FF FF FF 
   701)    102785.2  Rx     18FEA600  8  4E 79 B9 7B FF FF FF FF 
   702)    102785.5  Rx     18FEA600  8  4E 79 B9 7B FF FF FF FF 
   703)    102785.8  Rx     18FEA600  8  4E 79 B9 7B FF FF FF FF 
   704)    102786.1  Rx     18FEA600  8  4E 79 B9 7B FF FF FF FF 
   705)    102786.4  Rx     18FEA600  8  4E 79 B9 7B FF FF FF FF 
   706)    102786.7  Rx     18FEA600  8  4E 79 B9 7B FF FF FF FF 
   707)    102787.1  Rx     18FEA600  8  4E 79 B9 7B FF FF FF FF 
   708)    102787.4  Rx     18FEA600  8  4E 79 B9 7B FF FF FF FF 
   709)    102787.7  Rx     18FEA600  8  4E 79 B9 7B FF FF FF FF 
   710)    102788.0  Rx     18FEA600  8  4E 79 B9 7B FF FF FF FF 
   711)    102788.3  Rx     18FEA600  8  4E 79 B9 7B FF FF FF FF 
   712)    102788.6  Rx     18FEA600  8  4E 79 B9 7B FF FF FF FF 
   713)    102788.9  Rx     18FEA600  8  4E 79 B9 7B FF FF FF FF 
   714)    102789.2  Rx     18FEA600  8  4E 79 B9 7B FF FF FF FF 
   715)    102789.5  Rx     18FEA600  8  4E 79 B9 7B FF FF FF FF 
   716)    102789.8  Rx     18FEA600  8  4E 79 B9 7B FF FF FF FF 
   717)    102790.1  Rx     18FEA600  8  4E 79 B9 7B FF FF FF FF 
   718)    102790.4  Rx     18FEA600  8  4E 79 B9 7B FF FF FF FF 
   719)    102790.7  Rx     18FEA600  8  4E 79 B9 7B FF FF FF FF 
   720)    102791.1  Rx     18FEA600  8  4E 79 B9 7B FF FF FF FF 
   721)    102791.4  Rx     18FEA600  8  4E 79 B9 7B FF FF FF FF 
   722)    102791.7  Rx     18FEA600  8  4E 79 B9 7B FF FF FF FF 
   723)    102792.0  Rx     18FEA600  8  4E 79 B9 7B FF FF FF FF 
   724)    102792.3  Rx     18FEA600  8  4E 79 B9 7B FF FF FF FF 
   725)    102792.6  Rx     18FEA600  8  4E 79 B9 7B FF FF FF FF 
   726)    102792.9  Rx     18FEA600  8  4E 79 B9 7B FF FF FF FF 
   727)    102793.2  Rx     18FEA600  8  4E 79 B9 7B FF FF FF FF 
   728)    102793.5  Rx     18FEA600  8  4E 79 B9 7B FF FF FF FF 
   729)    102793.8  Rx     18FEA600  8  4E 79 B9 7B FF FF FF FF 
   730)    102794.1  Rx     18FEA600  8  4E 79 B9 7B FF FF FF FF 
   731)    102794.4  Rx     18FEA600  8  4E 79 B9 7B FF FF FF FF 
   732)    102794.8  Rx     18FEA600  8  4E 79 B9 7B FF FF FF FF 
   733)    102795.1  Rx     18FEA600  8  4E 79 B9 7B FF FF FF FF 
   734)    102795.4  Rx     18FEA600  8  4E 79 B9 7B FF FF FF FF 
   735)    102795.7  Rx     18FEA600  8  4E 79 B9 7B FF FF FF FF 
   736)    102796.0  Rx     18FEA600  8  4E 79 B9 7B FF FF FF FF 
   737)    102796.3  Rx     18FEA600  8  4E 79 B9 7B FF FF FF FF 
   738)    102796.6  Rx     18FEA600  8  4E 79 B9 7B FF FF FF FF 
   739)    102796.9  Rx     0CF00200  8  FF 79 3D FF FF FF FF FF 
   740)    102797.3  Rx     0CF00200  8  FF 79 3D FF FF FF FF FF 
   741)    102797.6  Rx     0CF00200  8  FF 79 3D FF FF FF FF FF 
   742)    102797.9  Rx     0CF00200  8  FF 79 3D FF FF FF FF FF 
   743)    102798.2  Rx     0CF00200  8  FF 79 3D FF FF FF FF FF 
   744)    102798.5  Rx     0CF00200  8  FF 79 3D FF FF FF FF FF 
   745)    102798.8  Rx     0CF00200  8  FF 79 3D FF FF FF FF FF 
   746)    102799.1  Rx     0CF00200  8  FF 79 3D FF FF FF FF FF 
   747)    102799.4  Rx     0CF00200  8  FF 79 3D FF FF FF FF FF 
   748)    102799.8  Rx     0CF00200  8  FF 79 3D FF FF FF FF FF 
   749)    102800.1  Rx     0CF00900  8  D5 79 FF C7 79 D5 79 79 
   750)    102800.4  Rx     0CF00503  8  FF FF FF 79 FF FF FF FF 
   751)    102800.7  Rx     0CF00503  8  FF FF FF 79 FF FF FF FF 
   752)    102801.0  Rx     0CF00503  8  FF FF FF 79 FF FF FF FF 
   753)    102801.4  Rx     0CF00503  8  FF FF FF 79 FF FF FF FF 
   754)    102801.6  Rx     0CF00503  8  FF FF FF 79 FF FF FF FF 
   755)    102802.0  Rx     0CF00503  8  FF FF FF 79 FF FF FF FF 
   756)    102802.3  Rx     0CF00503  8  FF FF FF 79 FF FF FF FF 
   757)    102802.6  Rx     0CF00503  8  FF FF FF 79 FF FF FF FF 
   758)    102802.9  Rx     18F0010B  8  FF 79 FF FF FF FF FF FF 
   759)    102803.2  Rx     0CF00000  8  FF 3D FF FF FF FF FF FF 
   760)    102803.6  Rx     0CF00000  8  FF 3D FF FF FF FF FF FF 
   761)    102803.9  Rx     0CF00000  8  FF 3D FF FF FF FF FF FF 
   762)    102804.2  Rx     0CF00000  8  FF 3D FF FF FF FF FF FF 
   763)    102804.5  Rx     0CF00000  8  FF 3D FF FF FF FF FF FF 
   764)    102804.8  Rx     0CF00000  8  FF 3D FF FF FF FF FF FF 
   765)    102805.1  Rx     0CF00000  8  FF 3D FF FF FF FF FF FF 
   766)    102805.5  Rx     0CF00000  8  FF 3D FF FF FF FF FF FF 
   767)    102805.8  Rx     0CF00000  8  FF 3D FF FF FF FF FF FF 
   768)    102806.1  Rx     18FDB300  8  D6 79 D6 79 FF FF FF FF 
   769)    102806.4  Rx     18FDB300  8  D6 79 D6 79 FF FF FF FF 
   770)    102806.7  Rx     18FDB300  8  D6 79 D6 79 FF FF FF FF 
   771)    102807.0  Rx     18FDB300  8  D6 79 D6 79 FF FF FF FF 
   772)    102807.3  Rx     18FDB300  8  D6 79 D6 79 FF FF FF FF 
   773)    102807.7  Rx     18FDB300  8  D6 79 D6 79 FF FF FF FF 
   774)    102808.0  Rx     18FDB300  8  D6 79 D6 79 FF FF FF FF 
   775)    102808.3  Rx     18FDB300  8  D6 79 D6 79 FF FF FF FF 
   776)    102808.6  Rx     18FDB300  8  D6 79 D6 79 FF FF FF FF 
   777)    102808.9  Rx     18FEBD00  8  79 FF D5 79 FF FF FF FF 
   778)    102809.2  Rx     18FEBD00  8  79 FF D5 79 FF FF FF FF 
   779)    102809.6  Rx     18FEBD00  8  79 FF D5 79 FF FF FF FF 
   780)    102809.9  Rx     18FEBD00  8  79 FF D5 79 FF FF FF FF 
   781)    102810.2  Rx     18FEBD00  8  79 FF D5 79 FF FF FF FF 
   782)    102810.5  Rx     18FEBD00  8  79 FF D5 79 FF FF FF FF 
   783)    102810.8  Rx     18FEBD00  8  79 FF D5 79 FF FF FF FF 
   784)    102811.2  Rx     18FEBD00  8  79 FF D5 79 FF FF FF FF 
   785)    102811.5  Rx     18FEBD00  8  79 FF D5 79 FF FF FF FF 
   786)    102811.8  Rx     18FEBD00  8  79 FF D5 79 FF FF FF FF 
   787)    102812.1  Rx     18FEFF00  8  FD FF FF FF FF FF FF FF 
   788)    102812.4  Rx     18FEF200  8  D5 79 D6 79 D6 79 FF FF 
   789)    102812.7  Rx     18FEF200  8  D5 79 D6 79 D6 79 FF FF 
   790)    102813.0  Rx     18FEF200  8  D5 79 D6 79 D6 79 FF FF 
   791)    102813.3  Rx     18FEF200  8  D5 79 D6 79 D6 79 FF FF 
   792)    102813.6  Rx     0CF00400  8  F7 7B 7B 24 7B FF FF 7B 
   793)    102813.9  Rx     0CF00400  8  F7 7B 7B 24 7B FF FF 7B 
   794)    102814.2  Rx     0CF00400  8  F7 7B 7B 24 7B FF FF 7B 
   795)    102814.5  Rx     0CF00400  8  F7 7B 7B 24 7B FF FF 7B 
   796)    102814.8  Rx     0CF00400  8  F7 7B 7B 24 7B FF FF 7B 
   797)    102815.1  Rx     0CF00400  8  F7 7B 7B 24 7B FF FF 7B 
   798)    102815.5  Rx     0CF00400  8  F7 7B 7B 24 7B FF FF 7B 
   799)    102815.8  Rx     0CF00400  8  F7 7B 7B 24 7B FF FF 7B 
   800)    102816.1  Rx     18FEEE00  8  7B 24 7B FF FF FF FF FF 
   801)    102816.4  Rx     18FEEE00  8  7B 24 7B FF FF FF FF FF 
   802)    102816.7  Rx     18FEEE00  8  7B 24 7B FF FF FF FF FF 
   803)    102817.0  Rx     18FEEE00  8  7B 24 7B FF FF FF FF FF 
   804)    102817.3  Rx     18FEEE00  8  7B 24 7B FF FF FF FF FF 
   805)    102817.6  Rx     18FEEE00  8  7B 24 7B FF FF FF FF FF 
   806)    102817.9  Rx     18FEEE00  8  7B 24 7B FF FF FF FF FF 
   807)    102818.2  Rx     18FEEE00  8  7B 24 7B FF FF FF FF FF 
   808)    102818.6  Rx     18FEEE00  8  7B 24 7B FF FF FF FF FF 
   809)    102819.0  Rx     0CF00900  8  23 7B FF 15 7B 23 7B 7B 
   810)    102819.4  Rx     0CF00503  8  FF FF FF 7B FF FF FF FF 
   811)    102819.7  Rx     0CF00503  8  FF FF FF 7B FF FF FF FF 
   812)    102820.0  Rx     0CF00503  8  FF FF FF 7B FF FF FF FF 
   813)    102820.3  Rx     0CF00503  8  FF FF FF 7B FF FF FF FF 
   814)    102820.6  Rx     0CF00503  8  FF FF FF 7B FF FF FF FF 
   815)    102820.9  Rx     0CF00503  8  FF FF FF 7B FF FF FF FF 
   816)    102821.2  Rx     0CF00503  8  FF FF FF 7B FF FF FF FF 
   817)    102821.6  Rx     0CF00503  8  FF FF FF 7B FF FF FF FF 
   818)    102821.9  Rx     18FEFA0B  8  7B FF FF FF FF FF FF FF 
   819)    102822.3  Rx     0CF00000  8  FF 3D FF FF FF FF FF FF 
   820)    102822.6  Rx     0CF00000  8  FF 3D FF FF FF FF FF FF 
   821)    102822.9  Rx     0CF00000  8  FF 3D FF FF FF FF FF FF 
   822)    102823.2  Rx     0CF00000  8  FF 3D FF FF FF FF FF FF 
   823)    102823.5  Rx     0CF00000  8  FF 3D FF FF FF FF FF FF 
   824)    102823.8  Rx     0CF00000  8  FF 3D FF FF FF FF FF FF 
   825)    102824.2  Rx     0CF00000  8  FF 3D FF FF FF FF FF FF 
   826)    102824.5  Rx     0CF00000  8  FF 3D FF FF FF FF FF FF 
   827)    102824.8  Rx     0CF00000  8  FF 3D FF FF FF FF FF FF 
   828)    102825.1  Rx     18FDB300  8  24 7B 24 7B FF FF FF FF 
   829)    102825.4  Rx     18FDB300  8  24 7B 24 7B FF FF FF FF 
   830)    102825.8  Rx     18FDB300  8  24 7B 24 7B FF FF FF FF 
   831)    102826.1  Rx     18FDB300  8  24 7B 24 7B FF FF FF FF 
   832)    102826.4  Rx     18FDB300  8  24 7B 24 7B FF FF FF FF 
   833)    102826.7  Rx     18FDB300  8  24 7B 24 7B FF FF FF FF 
   834)    102827.0  Rx     18FDB300  8  24 7B 24 7B FF FF FF FF 
   835)    102827.3  Rx     18FDB300  8  24 7B 24 7B FF FF FF FF 
   836)    102827.6  Rx     18FDB300  8  24 7B 24 7B FF FF FF FF 
   837)    102828.0  Rx     18FEFC00  8  7B 7B FF FF FF FF FF FF 
   838)    102828.3  Rx     18FEFC00  8  7B 7B FF FF FF FF FF FF 
   839)    102828.7  Rx     18FEA600  8  24 7B 97 7D FF FF FF FF 
   840)    102829.0  Rx     18FEA600  8  24 7B 97 7D FF FF FF FF 
   841)    102829.3  Rx     18FEA600  8  24 7B 97 7D FF FF FF FF 
   842)    102829.6  Rx     18FEA600  8  24 7B 97 7D FF FF FF FF 
   843)    102829.9  Rx     18FEA600  8  24 7B 97 7D FF FF FF FF 
   844)    102830.2  Rx     18FEA600  8  24 7B 97 7D FF FF FF FF 
   845)    102830.5  Rx     18FEA600  8  24 7B 97 7D FF FF FF FF 
   846)    102830.8  Rx     18FEA600  8  24 7B 97 7D FF FF FF FF 
   847)    102831.1  Rx     18FEF200  8  23 7B 24 7B 24 7B FF FF 
   848)    102831.4  Rx     18FEF200  8  23 7B 24 7B 24 7B FF FF 
   849)    102831.8  Rx     18FEF200  8  23 7B 24 7B 24 7B FF FF 
   850)    102832.1  Rx     18FEF200  8  23 7B 24 7B 24 7B FF FF 
   851)    102832.4  Rx     18FEF200  8  23 7B 24 7B 24 7B FF FF 
   852)    102832.7  Rx     18FEF200  8  23 7B 24 7B 24 7B FF FF 
   853)    102833.0  Rx     18FEF200  8  23 7B 24 7B 24 7B FF FF 
   854)    102833.3  Rx     18FEF200  8  23 7B 24 7B 24 7B FF FF 
   855)    102833.6  Rx     18FEF200  8  23 7B 24 7B 24 7B FF FF 
   856)    102833.9  Rx     0CF00200  8  FF 7B 3E FF FF FF FF FF 
   857)    102834.2  Rx     0CF00200  8  FF 7B 3E FF FF FF FF FF 
   858)    102834.5  Rx     0CF00200  8  FF 7B 3E FF FF FF FF FF 
   859)    102834.8  Rx     0CF00200  8  FF 7B 3E FF FF FF FF FF 
   860)    102835.2  Rx     0CF00200  8  FF 7B 3E FF FF FF FF FF 
   861)    102835.5  Rx     0CF00200  8  FF 7B 3E FF FF FF FF FF 
   862)    102835.8  Rx     0CF00200  8  FF 7B 3E FF FF FF FF FF 
   863)    102836.1  Rx     18FEEF00  8  7B FF FF 7B FF FF FF FF 
   864)    102836.4  Rx     18FEEF00  8  7B FF FF 7B FF FF FF FF 
   865)    102836.8  Rx     18FEEF00  8  7B FF FF 7B FF FF FF FF 
   866)    102837.1  Rx     18FEEF00  8  7B FF FF 7B FF FF FF FF 
   867)    102837.4  Rx     18FEEF00  8  7B FF FF 7B FF FF FF FF 
   868)    102837.7  Rx     18FEEF00  8  7B FF FF 7B FF FF FF FF 
   869)    102838.0  Rx     18FEEF00  8  7B FF FF 7B FF FF FF FF 
   870)    102838.3  Rx     18FEEF00  8  7B FF FF 7B FF FF FF FF 
   871)    102838.6  Rx     18FEEF00  8  7B FF FF 7B FF FF FF FF 
   872)    102839.0  Rx     0CF00503  8  FF FF FF 7B FF FF FF FF 
   873)    102839.3  Rx     0CF00503  8  FF FF FF 7B FF FF FF FF 
   874)    102839.6  Rx     0CF00503  8  FF FF FF 7B FF FF FF FF 
   875)    102839.9  Rx     0CF00503  8  FF FF FF 7B FF FF FF FF 
   876)    102840.3  Rx     0CF00503  8  FF FF FF 7B FF FF FF FF 
   877)    102840.6  Rx     0CF00503  8  FF FF FF 7B FF FF FF FF 
   878)    102840.9  Rx     0CF00503  8  FF FF FF 7B FF FF FF FF 
   879)    102841.2  Rx     0CF00503  8  FF FF FF 7B FF FF FF FF 
   880)    102841.5  Rx     0CF00503  8  FF FF FF 7B FF FF FF FF 
   881)    102841.8  Rx     0CF00503  8  FF FF FF 7B FF FF FF FF 
   882)    102842.2  Rx     0CF00000  8  FF 3E FF FF FF FF FF FF 
   883)    102842.5  Rx     0CF00000  8  FF 3E FF FF FF FF FF FF 
   884)    102842.8  Rx     0CF00000  8  FF 3E FF FF FF FF FF FF 
   885)    102843.1  Rx     0CF00000  8  FF 3E FF FF FF FF FF FF 
   886)    102843.5  Rx     0CF00000  8  FF 3E FF FF FF FF FF FF 
   887)    102843.8  Rx     0CF00000  8  FF 3E FF FF FF FF FF FF 
   888)    102844.1  Rx     0CF00000  8  FF 3E FF FF FF FF FF FF 
   889)    102844.4  Rx     0CF00000  8  FF 3E FF FF FF FF FF FF 
   890)    102844.7  Rx     0CF00000  8  FF 3E FF FF FF FF FF FF 
   891)    102845.2  Rx     18FEF500  8  7B A5 7B A5 7B 7B A5 7B 
   892)    102845.5  Rx     18FEF500  8  7B A5 7B A5 7B 7B A5 7B 
   893)    102845.8  Rx     18FEBD00  8  7B FF A4 7B FF FF FF FF 
   894)    102846.1  Rx     18FEBD00  8  7B FF A4 7B FF FF FF FF 
   895)    102846.4  Rx     18FEBD00  8  7B FF A4 7B FF FF FF FF 
   896)    102846.7  Rx     18FEBD00  8  7B FF A4 7B FF FF FF FF 
   897)    102847.0  Rx     18FEBD00  8  7B FF A4 7B FF FF FF FF 
   898)    102847.3  Rx     18FEBD00  8  7B FF A4 7B FF FF FF FF 
   899)    102847.7  Rx     18FEBD00  8  7B FF A4 7B FF FF FF FF 
   900)    102848.2  Rx     18FEE600  8  76 1D 0B 06 3F 7B FF FF 
   901)    102848.6  Rx     18FEA600  8  A4 7B 1B 7E FF FF FF FF 
   902)    102848.9  Rx     18FEA600  8  A4 7B 1B 7E FF FF FF FF 
   903)    102849.2  Rx     18FEA600  8  A4 7B 1B 7E FF FF FF FF 
   904)    102849.5  Rx     18FEA600  8  A4 7B 1B 7E FF FF FF FF 
   905)    102849.8  Rx     18FEA600  8  A4 7B 1B 7E FF FF FF FF 
   906)    102850.1  Rx     18FEA600  8  A4 7B 1B 7E FF FF FF FF 
   907)    102850.4  Rx     18FEA600  8  A4 7B 1B 7E FF FF FF FF 
   908)    102850.8  Rx     18FEA600  8  A4 7B 1B 7E FF FF FF FF 
   909)    102853.5  Rx     0CF00400  8  F7 7C 7C 25 7C FF FF 7C 
   910)    102853.9  Rx     0CF00200  8  FF 7C 3E FF FF FF FF FF 
   911)    102854.2  Rx     0CF00200  8  FF 7C 3E FF FF FF FF FF 
   912)    102854.5  Rx     0CF00200  8  FF 7C 3E FF FF FF FF FF 
   913)    102854.8  Rx     0CF00200  8  FF 7C 3E FF FF FF FF FF 
   914)    102855.2  Rx     0CF00200  8  FF 7C 3E FF FF FF FF FF 
   915)    102855.5  Rx     0CF00200  8  FF 7C 3E FF FF FF FF FF 
   916)    102855.8  Rx     0CF00200  8  FF 7C 3E FF FF FF FF FF 
   917)    102856.1  Rx     18FEF600  8  FF 7C FF FF FF FF FF FF 
   918)    102856.4  Rx     0CF00900  8  24 7C FF 16 7C 24 7C 7C 
   919)    102856.7  Rx     0CF00900  8  24 7C FF 16 7C 24 7C 7C 
   920)    102857.0  Rx     0CF00900  8  24 7C FF 16 7C 24 7C 7C 
   921)    102857.4  Rx     0CF00900  8  24 7C FF 16 7C 24 7C 7C 
   922)    102857.7  Rx     0CF00900  8  24 7C FF 16 7C 24 7C 7C 
   923)    102858.0  Rx     0CF00900  8  24 7C FF 16 7C 24 7C 7C 
   924)    102858.3  Rx     0CF00900  8  24 7C FF 16 7C 24 7C 7C 
   925)    102858.6  Rx     0CF00900  8  24 7C FF 16 7C 24 7C 7C 
   926)    102858.9  Rx     0CF00900  8  24 7C FF 16 7C 24 7C 7C 
   927)    102859.2  Rx     18F0010B  8  FF 7C FF FF FF FF FF FF 
   928)    102859.5  Rx     18F0010B  8  FF 7C FF FF FF FF FF FF 
   929)    102859.8  Rx     18F0010B  8  FF 7C FF FF FF FF FF FF 
   930)    102860.2  Rx     18F0010B  8  FF 7C FF FF FF FF FF FF 
   931)    102860.5  Rx     18F0010B  8  FF 7C FF FF FF FF FF FF 
   932)    102860.8  Rx     18F0010B  8  FF 7C FF FF FF FF FF FF 
   933)    102861.1  Rx     18F0010B  8  FF 7C FF FF FF FF FF FF 
   934)    102861.4  Rx     18F0010B  8  FF 7C FF FF FF FF FF FF 
   935)    102861.8  Rx     18F0010B  8  FF 7C FF FF FF FF FF FF 
   936)    102862.1  Rx     18F02300  8  25 7C FF FF FF FF FF FF 
   937)    102862.4  Rx     18F02300  8  25 7C FF FF FF FF FF FF 
   938)    102862.7  Rx     18F02300  8  25 7C FF FF FF FF FF FF 
   939)    102863.0  Rx     18F02300  8  25 7C FF FF FF FF FF FF 
   940)    102863.3  Rx     18F02300  8  25 7C FF FF FF FF FF FF 
   941)    102863.7  Rx     18F02300  8  25 7C FF FF FF FF FF FF 
   942)    102864.0  Rx     18F02300  8  25 7C FF FF FF FF FF FF 
   943)    102864.3  Rx     18F02300  8  25 7C FF FF FF FF FF FF 
   944)    102864.6  Rx     18F02300  8  25 7C FF FF FF FF FF FF 
   945)    102865.0  Rx     18F02300  8  25 7C FF FF FF FF FF FF 
   946)    102865.3  Rx     18FEF700  8  7C FF 25 7C 25 7C FF FF 
   947)    102865.6  Rx     18FEBD00  8  7C FF 25 7C FF FF FF FF 
   948)    102865.9  Rx     18FEBD00  8  7C FF 25 7C FF FF FF FF 
   949)    102866.2  Rx     18FEBD00  8  7C FF 25 7C FF FF FF FF 
   950)    102866.5  Rx     18FEBD00  8  7C FF 25 7C FF FF FF FF 
   951)    102866.8  Rx     18FEBD00  8  7C FF 25 7C FF FF FF FF 
   952)    102867.1  Rx     18FEBD00  8  7C FF 25 7C FF FF FF FF 
   953)    102867.5  Rx     18FEBD00  8  7C FF 25 7C FF FF FF FF 
   954)    102867.8  Rx     18FEBD00  8  7C FF 25 7C FF FF FF FF 
   955)    102868.1  Rx     18FEA600  8  25 7C 9E 7E FF FF FF FF 
   956)    102868.5  Rx     18FEA600  8  25 7C 9E 7E FF FF FF FF 
   957)    102868.8  Rx     18FEA600  8  25 7C 9E 7E FF FF FF FF 
   958)    102869.1  Rx     18FEA600  8  25 7C 9E 7E FF FF FF FF 
   959)    102869.4  Rx     18FEA600  8  25 7C 9E 7E FF FF FF FF 
   960)    102869.7  Rx     18FEA600  8  25 7C 9E 7E FF FF FF FF 
   961)    102870.0  Rx     18FEA600  8  25 7C 9E 7E FF FF FF FF 
   962)    102870.3  Rx     18FEA600  8  25 7C 9E 7E FF FF FF FF 
   963)    102870.6  Rx     18FEA600  8  25 7C 9E 7E FF FF FF FF 
   964)    102871.0  Rx     18FEA600  8  25 7C 9E 7E FF FF FF FF 
   965)    102871.3  Rx     18FEA600  8  25 7C 9E 7E FF FF FF FF 
   966)    102871.6  Rx     18FEA600  8  25 7C 9E 7E FF FF FF FF 
   967)    102871.9  Rx     18FEA600  8  25 7C 9E 7E FF FF FF FF 
   968)    102872.2  Rx     18FEA600  8  25 7C 9E 7E FF FF FF FF 
   969)    102872.6  Rx     18FEA600  8  25 7C 9E 7E FF FF FF FF 
   970)    102872.9  Rx     18FEA600  8  25 7C 9E 7E FF FF FF FF 
   971)    102873.2  Rx     18FEA600  8  25 7C 9E 7E FF FF FF FF 
   972)    102873.5  Rx     18FEA600  8  25 7C 9E 7E FF FF FF FF 
   973)    102873.8  Rx     18FEA600  8  25 7C 9E 7E FF FF FF FF 
   974)    102874.1  Rx     18FEA600  8  25 7C 9E 7E FF FF FF FF 
   975)    102874.4  Rx     18FEA600  8  25 7C 9E 7E FF FF FF FF 
   976)    102874.7  Rx     18FEA600  8  25 7C 9E 7E FF FF FF FF 
   977)    102875.1  Rx     18FEA600  8  25 7C 9E 7E FF FF FF FF 
   978)    102875.4  Rx     18FEA600  8  25 7C 9E 7E FF FF FF FF 
   979)    102875.7  Rx     18FEA600  8  25 7C 9E 7E FF FF FF FF 
   980)    102876.0  Rx     18FEA600  8  25 7C 9E 7E FF FF FF FF 
   981)    102876.3  Rx     18FEA600  8  25 7C 9E 7E FF FF FF FF 
   982)    102876.7  Rx     18FEA600  8  25 7C 9E 7E FF FF FF FF 
   983)    102877.0  Rx     18FEA600  8  25 7C 9E 7E FF FF FF FF 
   984)    102877.3  Rx     0CF00200  8  FF 7C 3E FF FF FF FF FF 
   985)    102877.6  Rx     0CF00200  8  FF 7C 3E FF FF FF FF FF 
   986)    102877.9  Rx     0CF00200  8  FF 7C 3E FF FF FF FF FF 
   987)    102878.2  Rx     0CF00200  8  FF 7C 3E FF FF FF FF FF 
   988)    102878.6  Rx     0CF00200  8  FF 7C 3E FF FF FF FF FF 
   989)    102878.9  Rx     0CF00200  8  FF 7C 3E FF FF FF FF FF 
   990)    102879.2  Rx     0CF00200  8  FF 7C 3E FF FF FF FF FF 
   991)    102879.5  Rx     0CF00200  8  FF 7C 3E FF FF FF FF FF 
   992)    102879.9  Rx     0CF00200  8  FF 7C 3E FF FF FF FF FF 
   993)    102880.2  Rx     18FEF100  8  FF AC 7C FF FF FF FF FF 
   994)    102880.5  Rx     0CF00503  8  FF FF FF 7C FF FF FF FF 
   995)    102880.8  Rx     0CF00503  8  FF FF FF 7C FF FF FF FF 
   996)    102881.1  Rx     0CF00503  8  FF FF FF 7C FF FF FF FF 
   997)    102881.4  Rx     0CF00503  8  FF FF FF 7C FF FF FF FF 
   998)    102881.8  Rx     0CF00503  8  FF FF FF 7C FF FF FF FF 
   999)    102882.1  Rx     0CF00503  8  FF FF FF 7C FF FF FF FF 
  1000)    102882.4  Rx     0CF00503  8  FF FF FF 7C FF FF FF FF 
  1001)    102882.7  Rx     0CF00503  8  FF FF FF 7C FF FF FF FF 
  1002)    102883.1  Rx     0CF00503  8  FF FF FF 7C FF FF FF FF 
  1003)    102883.4  Rx     18F0010B  8  FF 7C FF FF FF FF FF FF 
  1004)    102883.7  Rx     0CF00000  8  FF 3E FF FF FF FF FF FF 
  1005)    102884.0  Rx     0CF00000  8  FF 3E FF FF FF FF FF FF 
  1006)    102884.3  Rx     0CF00000  8  FF 3E FF FF FF FF FF FF 
  1007)    102884.6  Rx     0CF00000  8  FF 3E FF FF FF FF FF FF 
  1008)    102885.0  Rx     0CF00000  8  FF 3E FF FF FF FF FF FF 
  1009)    102885.3  Rx     0CF00000  8  FF 3E FF FF FF FF FF FF 
  1010)    102885.6  Rx     0CF00000  8  FF 3E FF FF FF FF FF FF 
  1011)    102885.9  Rx     0CF00000  8  FF 3E FF FF FF FF FF FF 
  1012)    102886.3  Rx     18FE5600  8  7C 7C FF FF FF FF FF FF 
  1013)    102886.6  Rx     18FDB300  8  AC 7C AC 7C FF FF FF FF 
  1014)    102886.9  Rx     18FDB300  8  AC 7C AC 7C FF FF FF FF 
  1015)    102887.2  Rx     18FDB300  8  AC 7C AC 7C FF FF FF FF 
  1016)    102887.5  Rx     18FDB300  8  AC 7C AC 7C FF FF FF FF 
  1017)    102887.8  Rx     18FDB300  8  AC 7C AC 7C FF FF FF FF 
  1018)    102888.1  Rx     18FDB300  8  AC 7C AC 7C FF FF FF FF 
  1019)    102888.4  Rx     18FDB300  8  AC 7C AC 7C FF FF FF FF 
  1020)    102888.7  Rx     18FDB300  8  AC 7C AC 7C FF FF FF FF 
  1021)    102889.1  Rx     18FDB300  8  AC 7C AC 7C FF FF FF FF 
  1022)    102889.4  Rx     18FEBD00  8  7C FF AB 7C FF FF FF FF 
  1023)    102889.7  Rx     18FEBD00  8  7C FF AB 7C FF FF FF FF 
  1024)    102890.0  Rx     18FEBD00  8  7C FF AB 7C FF FF FF FF 
  1025)    102890.4  Rx     18FEBD00  8  7C FF AB 7C FF FF FF FF 
  1026)    102890.7  Rx     18FEBD00  8  7C FF AB 7C FF FF FF FF 
  1027)    102890.9  Rx     18FEBD00  8  7C FF AB 7C FF FF FF FF 
  1028)    102891.3  Rx     18FEBD00  8  7C FF AB 7C FF FF FF FF 
  1029)    102891.6  Rx     18FEBD00  8  7C FF AB 7C FF FF FF FF 
  1030)    102891.9  Rx     18FEBD00  8  7C FF AB 7C FF FF FF FF 
  1031)    102892.2  Rx     18FEFF00  8  FD FF FF FF FF FF FF FF 
  1032)    102892.6  Rx     18FEF200  8  AB 7C AC 7C AC 7C FF FF 
  1033)    102892.9  Rx     18FEF200  8  AB 7C AC 7C AC 7C FF FF 
  1034)    102893.2  Rx     18FEF200  8  AB 7C AC 7C AC 7C FF FF 
  1035)    102893.5  Rx     18FEF200  8  AB 7C AC 7C AC 7C FF FF 
  1036)    102893.8  Rx     18FEF200  8  AB 7C AC 7C AC 7C FF FF 
  1037)    102894.1  Rx     18FEF200  8  AB 7C AC 7C AC 7C FF FF 
  1038)    102894.4  Rx     18FEF200  8  AB 7C AC 7C AC 7C FF FF 
  1039)    102894.7  Rx     18FEF200  8  AB 7C AC 7C AC 7C FF FF 
  1040)    102895.0  Rx     0CF00400  8  F7 7D 7D 2C 7D FF FF 7D 
  1041)    102895.3  Rx     0CF00400  8  F7 7D 7D 2C 7D FF FF 7D 
  1042)    102895.7  Rx     0CF00400  8  F7 7D 7D 2C 7D FF FF 7D 
  1043)    102896.0  Rx     0CF00400  8  F7 7D 7D 2C 7D FF FF 7D 
  1044)    102896.3  Rx     0CF00400  8  F7 7D 7D 2C 7D FF FF 7D 
  1045)    102896.6  Rx     0CF00400  8  F7 7D 7D 2C 7D FF FF 7D 
  1046)    102896.9  Rx     0CF00400  8  F7 7D 7D 2C 7D FF FF 7D 
  1047)    102897.2  Rx     18FEEE00  8  7D 2C 7D FF FF FF FF FF 
  1048)    102897.6  Rx     18FEEE00  8  7D 2C 7D FF FF FF FF FF 
  1049)    102897.9  Rx     18FEEE00  8  7D 2C 7D FF FF FF FF FF 
  1050)    102898.2  Rx     18FEEE00  8  7D 2C 7D FF FF FF FF FF 
  1051)    102898.5  Rx     18FEEE00  8  7D 2C 7D FF FF FF FF FF 
  1052)    102898.8  Rx     18FEEE00  8  7D 2C 7D FF FF FF FF FF 
  1053)    102899.1  Rx     18FEEE00  8  7D 2C 7D FF FF FF FF FF 
  1054)    102899.4  Rx     18FEEE00  8  7D 2C 7D FF FF FF FF FF 
  1055)    102899.8  Rx     18FEEE00  8  7D 2C 7D FF FF FF FF FF 
  1056)    102900.1  Rx     18FEEE00  8  7D 2C 7D FF FF FF FF FF 
  1057)    102900.4  Rx     0CF00503  8  FF FF FF 7D FF FF FF FF 
  1058)    102900.7  Rx     0CF00503  8  FF FF FF 7D FF FF FF FF 
  1059)    102901.1  Rx     0CF00503  8  FF FF FF 7D FF FF FF FF 
  1060)    102901.4  Rx     0CF00503  8  FF FF FF 7D FF FF FF FF 
  1061)    102901.7  Rx     0CF00503  8  FF FF FF 7D FF FF FF FF 
  1062)    102902.0  Rx     0CF00503  8  FF FF FF 7D FF FF FF FF 
  1063)    102902.3  Rx     0CF00503  8  FF FF FF 7D FF FF FF FF 
  1064)    102902.6  Rx     0CF00503  8  FF FF FF 7D FF FF FF FF 
  1065)    102903.0  Rx     0CF00503  8  FF FF FF 7D FF FF FF FF 
  1066)    102903.3  Rx     18FEFA0B  8  7D FF FF FF FF FF FF FF 
  1067)    102903.6  Rx     0CF00000  8  FF 3E FF FF FF FF FF FF 
  1068)    102904.0  Rx     0CF00000  8  FF 3E FF FF FF FF FF FF 
  1069)    102904.3  Rx     0CF00000  8  FF 3E FF FF FF FF FF FF 
  1070)    102904.6  Rx     0CF00000  8  FF 3E FF FF FF FF FF FF 
  1071)    102904.9  Rx     0CF00000  8  FF 3E FF FF FF FF FF FF 
  1072)    102905.2  Rx     0CF00000  8  FF 3E FF FF FF FF FF FF 
  1073)    102905.5  Rx     0CF00000  8  FF 3E FF FF FF FF FF FF 
  1074)    102905.9  Rx     0CF00000  8  FF 3E FF FF FF FF FF FF 
  1075)    102906.3  Rx     18FDB300  8  2C 7D 2C 7D FF FF FF FF 
  1076)    102906.6  Rx     18FDB300  8  2C 7D 2C 7D FF FF FF FF 
  1077)    102906.9  Rx     18FDB300  8  2C 7D 2C 7D FF FF FF FF 
  1078)    102907.2  Rx     18FDB300  8  2C 7D 2C 7D FF FF FF FF 
  1079)    102907.5  Rx     18FDB300  8  2C 7D 2C 7D FF FF FF FF 
  1080)    102907.8  Rx     18FDB300  8  2C 7D 2C 7D FF FF FF FF 
  1081)    102908.1  Rx     18FDB300  8  2C 7D 2C 7D FF FF FF FF 
  1082)    102908.5  Rx     18FDB300  8  2C 7D 2C 7D FF FF FF FF 
  1083)    102908.8  Rx     18FDB300  8  2C 7D 2C 7D FF FF FF FF 
  1084)    102909.1  Rx     18FDB300  8  2C 7D 2C 7D FF FF FF FF 
  1085)    102909.4  Rx     18FEFC00  8  7D 7D FF FF FF FF FF FF 
  1086)    102909.8  Rx     18FEE600  8  77 1D 0B 06 40 7D FF FF 
  1087)    102910.1  Rx     18FEA600  8  2C 7D AA 7F FF FF FF FF 
  1088)    102910.4  Rx     18FEA600  8  2C 7D AA 7F FF FF FF FF 
  1089)    102910.7  Rx     18FEA600  8  2C 7D AA 7F FF FF FF FF 
  1090)    102911.0  Rx     18FEA600  8  2C 7D AA 7F FF FF FF FF 
  1091)    102911.3  Rx     18FEA600  8  2C 7D AA 7F FF FF FF FF 
  1092)    102911.6  Rx     18FEA600  8  2C 7D AA 7F FF FF FF FF 
  1093)    102912.0  Rx     18FEA600  8  2C 7D AA 7F FF FF FF FF 
  1094)    102912.3  Rx     18FEF200  8  2C 7D 2C 7D 2C 7D FF FF 
  1095)    102912.7  Rx     18FEF200  8  2C 7D 2C 7D 2C 7D FF FF 
  1096)    102913.0  Rx     18FEF200  8  2C 7D 2C 7D 2C 7D FF FF 
  1097)    102913.3  Rx     18FEF200  8  2C 7D 2C 7D 2C 7D FF FF 
  1098)    102913.6  Rx     18FEF200  8  2C 7D 2C 7D 2C 7D FF FF 
  1099)    102913.9  Rx     18FEF200  8  2C 7D 2C 7D 2C 7D FF FF 
  1100)    102914.2  Rx     18FEF200  8  2C 7D 2C 7D 2C 7D FF FF 
  1101)    102914.5  Rx     18FEF200  8  2C 7D 2C 7D 2C 7D FF FF 
  1102)    102914.8  Rx     18FEF200  8  2C 7D 2C 7D 2C 7D FF FF 
  1103)    102915.2  Rx     0CF00200  8  FF 7D 3F FF FF FF FF FF 
  1104)    102915.5  Rx     0CF00200  8  FF 7D 3F FF FF FF FF FF 
  1105)    102915.8  Rx     0CF00200  8  FF 7D 3F FF FF FF FF FF 
  1106)    102916.1  Rx     0CF00200  8  FF 7D 3F FF FF FF FF FF 
  1107)    102916.4  Rx     0CF00200  8  FF 7D 3F FF FF FF FF FF 
  1108)    102916.8  Rx     0CF00200  8  FF 7D 3F FF FF FF FF FF 
  1109)    102917.1  Rx     0CF00200  8  FF 7D 3F FF FF FF FF FF 
  1110)    102917.4  Rx     18FEEF00  8  7D FF FF 7D FF FF FF FF 
  1111)    102917.7  Rx     18FEEF00  8  7D FF FF 7D FF FF FF FF 
  1112)    102918.0  Rx     18FEEF00  8  7D FF FF 7D FF FF FF FF 
  1113)    102918.4  Rx     18FEEF00  8  7D FF FF 7D FF FF FF FF 
  1114)    102918.7  Rx     18FEEF00  8  7D FF FF 7D FF FF FF FF 
  1115)    102919.0  Rx     18FEEF00  8  7D FF FF 7D FF FF FF FF 
  1116)    102919.3  Rx     18FEEF00  8  7D FF FF 7D FF FF FF FF 
  1117)    102919.7  Rx     18FEEF00  8  7D FF FF 7D FF FF FF FF 
  1118)    102920.0  Rx     18FEEF00  8  7D FF FF 7D FF FF FF FF 
  1119)    102920.3  Rx     0CF00503  8  FF FF FF 7D FF FF FF FF 
  1120)    102920.6  Rx     0CF00503  8  FF FF FF 7D FF FF FF FF 
  1121)    102920.9  Rx     0CF00503  8  FF FF FF 7D FF FF FF FF 
  1122)    102921.2  Rx     0CF00503  8  FF FF FF 7D FF FF FF FF 
  1123)    102921.6  Rx     0CF00503  8  FF FF FF 7D FF FF FF FF 
  1124)    102921.9  Rx     0CF00503  8  FF FF FF 7D FF FF FF FF 
  1125)    102922.2  Rx     0CF00503  8  FF FF FF 7D FF FF FF FF 
  1126)    102922.5  Rx     0CF00503  8  FF FF FF 7D FF FF FF FF 
  1127)    102922.9  Rx     0CF00503  8  FF FF FF 7D FF FF FF FF 
  1128)    102923.2  Rx     0CF00503  8  FF FF FF 7D FF FF FF FF 
  1129)    102923.5  Rx     0CF00000  8  FF 3F FF FF FF FF FF FF 
  1130)    102923.8  Rx     0CF00000  8  FF 3F FF FF FF FF FF FF 
  1131)    102924.1  Rx     0CF00000  8  FF 3F FF FF FF FF FF FF 
  1132)    102924.5  Rx     0CF00000  8  FF 3F FF FF FF FF FF FF 
  1133)    102924.8  Rx     0CF00000  8  FF 3F FF FF FF FF FF FF 
  1134)    102925.1  Rx     0CF00000  8  FF 3F FF FF FF FF FF FF 
  1135)    102925.4  Rx     0CF00000  8  FF 3F FF FF FF FF FF FF 
  1136)    102925.8  Rx     0CF00000  8  FF 3F FF FF FF FF FF FF 
  1137)    102926.1  Rx     0CF00000  8  FF 3F FF FF FF FF FF FF 
  1138)    102926.4  Rx     18FEF500  8  7D AD 7D AD 7D 7D AD 7D 
  1139)    102926.7  Rx     18FEF500  8  7D AD 7D AD 7D 7D AD 7D 
  1140)    102927.1  Rx     18FEBD00  8  7D FF AD 7D FF FF FF FF 
  1141)    102927.4  Rx     18FEBD00  8  7D FF AD 7D FF FF FF FF 
  1142)    102927.7  Rx     18FEBD00  8  7D FF AD 7D FF FF FF FF 
  1143)    102928.0  Rx     18FEBD00  8  7D FF AD 7D FF FF FF FF 
  1144)    102928.4  Rx     18FEBD00  8  7D FF AD 7D FF FF FF FF 
  1145)    102928.7  Rx     18FEBD00  8  7D FF AD 7D FF FF FF FF 
  1146)    102929.0  Rx     18FEBD00  8  7D FF AD 7D FF FF FF FF 
  1147)    102929.5  Rx     18FEE600  8  78 1E 0C 07 40 7D FF FF 
  1148)    102929.9  Rx     18FEA600  8  AD 7D 2D 80 FF FF FF FF 
  1149)    102930.2  Rx     18FEA600  8  AD 7D 2D 80 FF FF FF FF 
  1150)    102930.5  Rx     18FEA600  8  AD 7D 2D 80 FF FF FF FF 
  1151)    102930.8  Rx     18FEA600  8  AD 7D 2D 80 FF FF FF FF 
  1152)    102931.1  Rx     18FEA600  8  AD 7D 2D 80 FF FF FF FF 
  1153)    102931.4  Rx     18FEA600  8  AD 7D 2D 80 FF FF FF FF 
  1154)    102931.7  Rx     18FEA600  8  AD 7D 2D 80 FF FF FF FF 
  1155)    102932.0  Rx     18FEA600  8  AD 7D 2D 80 FF FF FF FF 
  1156)    102946.7  Rx     0CF00400  8  F8 7E 7E 74 7E FF FF 7E 
  1157)    102947.0  Rx     0CF00200  8  FF 7E 3F FF FF FF FF FF 
  1158)    102947.3  Rx     0CF00200  8  FF 7E 3F FF FF FF FF FF 
  1159)    102947.7  Rx     0CF00200  8  FF 7E 3F FF FF FF FF FF 
  1160)    102948.0  Rx     0CF00200  8  FF 7E 3F FF FF FF FF FF 
  1161)    102948.3  Rx     0CF00200  8  FF 7E 3F FF FF FF FF FF 
  1162)    102948.6  Rx     0CF00200  8  FF 7E 3F FF FF FF FF FF 
  1163)    102948.9  Rx     0CF00200  8  FF 7E 3F FF FF FF FF FF 
  1164)    102949.2  Rx     0CF00200  8  FF 7E 3F FF FF FF FF FF 
  1165)    102949.6  Rx     18FEF100  8  FF 74 7E FF FF FF FF FF 
  1166)    102949.9  Rx     0CF00900  8  73 7E FF 65 7E 73 7E 7E 
  1167)    102950.2  Rx     0CF00900  8  73 7E FF 65 7E 73 7E 7E 
  1168)    102950.5  Rx     0CF00900  8  73 7E FF 65 7E 73 7E 7E 
  1169)    102950.8  Rx     0CF00900  8  73 7E FF 65 7E 73 7E 7E 
  1170)    102951.1  Rx     0CF00900  8  73 7E FF 65 7E 73 7E 7E 
  1171)    102951.4  Rx     0CF00900  8  73 7E FF 65 7E 73 7E 7E 
  1172)    102951.7  Rx     0CF00900  8  73 7E FF 65 7E 73 7E 7E 
  1173)    102952.0  Rx     0CF00900  8  73 7E FF 65 7E 73 7E 7E 
  1174)    102952.4  Rx     18FEF803  8  FF FF FF 7E 74 7E FF FF 
  1175)    102952.7  Rx     18F0010B  8  FF 7E FF FF FF FF FF FF 
  1176)    102953.0  Rx     18F0010B  8  FF 7E FF FF FF FF FF FF 
  1177)    102953.4  Rx     18F0010B  8  FF 7E FF FF FF FF FF FF 
  1178)    102953.7  Rx     18F0010B  8  FF 7E FF FF FF FF FF FF 
  1179)    102954.0  Rx     18F0010B  8  FF 7E FF FF FF FF FF FF 
  1180)    102954.3  Rx     18F0010B  8  FF 7E FF FF FF FF FF FF 
  1181)    102954.6  Rx     18F0010B  8  FF 7E FF FF FF FF FF FF 
  1182)    102954.9  Rx     18F0010B  8  FF 7E FF FF FF FF FF FF 
  1183)    102955.2  Rx     18F0010B  8  FF 7E FF FF FF FF FF FF 
  1184)    102955.5  Rx     18F02300  8  74 7E FF FF FF FF FF FF 
  1185)    102955.9  Rx     18F02300  8  74 7E FF FF FF FF FF FF 
  1186)    102956.2  Rx     18F02300  8  74 7E FF FF FF FF FF FF 
  1187)    102956.5  Rx     18F02300  8  74 7E FF FF FF FF FF FF 
  1188)    102956.8  Rx     18F02300  8  74 7E FF FF FF FF FF FF 
  1189)    102957.2  Rx     18F02300  8  74 7E FF FF FF FF FF FF 
  1190)    102957.5  Rx     18F02300  8  74 7E FF FF FF FF FF FF 
  1191)    102957.8  Rx     18F02300  8  74 7E FF FF FF FF FF FF 
  1192)    102958.1  Rx     18F02300  8  74 7E FF FF FF FF FF FF 
  1193)    102958.5  Rx     18FEF700  8  7E FF 74 7E 74 7E FF FF 
  1194)    102958.8  Rx     18FEBD00  8  7E FF 74 7E FF FF FF FF 
  1195)    102959.1  Rx     18FEBD00  8  7E FF 74 7E FF FF FF FF 
  1196)    102959.4  Rx     18FEBD00  8  7E FF 74 7E FF FF FF FF 
  1197)    102959.8  Rx     18FEBD00  8  7E FF 74 7E FF FF FF FF 
  1198)    102960.1  Rx     18FEBD00  8  7E FF 74 7E FF FF FF FF 
  1199)    102960.4  Rx     18FEBD00  8  7E FF 74 7E FF FF FF FF 
  1200)    102960.7  Rx     18FEBD00  8  7E FF 74 7E FF FF FF FF 
  1201)    102961.0  Rx     18FEBD00  8  7E FF 74 7E FF FF FF FF 
  1202)    102961.3  Rx     18FEBD00  8  7E FF 74 7E FF FF FF FF 
  1203)    102961.6  Rx     18FEA600  8  74 7E F9 80 FF FF FF FF 
  1204)    102961.9  Rx     18FEA600  8  74 7E F9 80 FF FF FF FF 
  1205)    102962.3  Rx     18FEA600  8  74 7E F9 80 FF FF FF FF 
  1206)    102962.6  Rx     18FEA600  8  74 7E F9 80 FF FF FF FF 
  1207)    102962.9  Rx     18FEA600  8  74 7E F9 80 FF FF FF FF 
  1208)    102963.2  Rx     18FEA600  8  74 7E F9 80 FF FF FF FF 
  1209)    102963.5  Rx     18FEA600  8  74 7E F9 80 FF FF FF FF 
  1210)    102963.9  Rx     18FEA600  8  74 7E F9 80 FF FF FF FF 
  1211)    102964.2  Rx     18FEA600  8  74 7E F9 80 FF FF FF FF 
  1212)    102964.5  Rx     18FEA600  8  74 7E F9 80 FF FF FF FF 
  1213)    102964.8  Rx     18FEA600  8  74 7E F9 80 FF FF FF FF 
  1214)    102965.1  Rx     18FEA600  8  74 7E F9 80 FF FF FF FF 
  1215)    102965.4  Rx     18FEA600  8  74 7E F9 80 FF FF FF FF 
  1216)    102965.7  Rx     18FEA600  8  74 7E F9 80 FF FF FF FF 
  1217)    102966.1  Rx     18FEA600  8  74 7E F9 80 FF FF FF FF 
  1218)    102966.4  Rx     18FEA600  8  74 7E F9 80 FF FF FF FF 
  1219)    102966.7  Rx     18FEA600  8  74 7E F9 80 FF FF FF FF 
  1220)    102967.0  Rx     18FEA600  8  74 7E F9 80 FF FF FF FF 
  1221)    102967.4  Rx     18FEA600  8  74 7E F9 80 FF FF FF FF 
  1222)    102967.7  Rx     18FEA600  8  74 7E F9 80 FF FF FF FF 
  1223)    102968.0  Rx     18FEA600  8  74 7E F9 80 FF FF FF FF 
  1224)    102968.3  Rx     18FEA600  8  74 7E F9 80 FF FF FF FF 
  1225)    102968.6  Rx     18FEA600  8  74 7E F9 80 FF FF FF FF 
  1226)    102968.9  Rx     18FEA600  8  74 7E F9 80 FF FF FF FF 
  1227)    102969.2  Rx     18FEA600  8  74 7E F9 80 FF FF FF FF 
  1228)    102969.6  Rx     0CF00200  8  FF 7E 3F FF FF FF FF FF 
  1229)    102969.9  Rx     0CF00200  8  FF 7E 3F FF FF FF FF FF 
  1230)    102970.2  Rx     0CF00200  8  FF 7E 3F FF FF FF FF FF 
  1231)    102970.6  Rx     0CF00200  8  FF 7E 3F FF FF FF FF FF 
  1232)    102970.9  Rx     0CF00200  8  FF 7E 3F FF FF FF FF FF 
  1233)    102971.2  Rx     0CF00200  8  FF 7E 3F FF FF FF FF FF 
  1234)    102971.5  Rx     0CF00200  8  FF 7E 3F FF FF FF FF FF 
  1235)    102971.8  Rx     0CF00200  8  FF 7E 3F FF FF FF FF FF 
  1236)    102972.1  Rx     0CF00200  8  FF 7E 3F FF FF FF FF FF 
  1237)    102972.5  Rx     18FEF100  8  FF F5 7E FF FF FF FF FF 
  1238)    102972.8  Rx     0CF00503  8  FF FF FF 7E FF FF FF FF 
  1239)    102973.1  Rx     0CF00503  8  FF FF FF 7E FF FF FF FF 
  1240)    102973.4  Rx     0CF00503  8  FF FF FF 7E FF FF FF FF 
  1241)    102973.8  Rx     0CF00503  8  FF FF FF 7E FF FF FF FF 
  1242)    102974.1  Rx     0CF00503  8  FF FF FF 7E FF FF FF FF 
  1243)    102974.4  Rx     0CF00503  8  FF FF FF 7E FF FF FF FF 
  1244)    102974.7  Rx     0CF00503  8  FF FF FF 7E FF FF FF FF 
  1245)    102975.0  Rx     0CF00503  8  FF FF FF 7E FF FF FF FF 
  1246)    102975.3  Rx     0CF00503  8  FF FF FF 7E FF FF FF FF 
  1247)    102975.7  Rx     18F0010B  8  FF 7E FF FF FF FF FF FF 
  1248)    102976.0  Rx     0CF00000  8  FF 3F FF FF FF FF FF FF 
  1249)    102976.3  Rx     0CF00000  8  FF 3F FF FF FF FF FF FF 
  1250)    102976.6  Rx     0CF00000  8  FF 3F FF FF FF FF FF FF 
  1251)    102977.0  Rx     0CF00000  8  FF 3F FF FF FF FF FF FF 
  1252)    102977.3  Rx     0CF00000  8  FF 3F FF FF FF FF FF FF 
  1253)    102977.6  Rx     0CF00000  8  FF 3F FF FF FF FF FF FF 
  1254)    102977.9  Rx     0CF00000  8  FF 3F FF FF FF FF FF FF 
  1255)    102978.2  Rx     0CF00000  8  FF 3F FF FF FF FF FF FF 
  1256)    102978.5  Rx     18FE5600  8  7E 7E FF FF FF FF FF FF 
  1257)    102978.9  Rx     18FDB300  8  F5 7E F5 7E FF FF FF FF 
  1258)    102979.2  Rx     18FDB300  8  F5 7E F5 7E FF FF FF FF 
  1259)    102979.5  Rx     18FDB300  8  F5 7E F5 7E FF FF FF FF 
  1260)    102979.8  Rx     18FDB300  8  F5 7E F5 7E FF FF FF FF 
  1261)    102980.1  Rx     18FDB300  8  F5 7E F5 7E FF FF FF FF 
  1262)    102980.5  Rx     18FDB300  8  F5 7E F5 7E FF FF FF FF 
  1263)    102980.8  Rx     18FDB300  8  F5 7E F5 7E FF FF FF FF 
  1264)    102981.1  Rx     18FDB300  8  F5 7E F5 7E FF FF FF FF 
  1265)    102981.4  Rx     18FDB300  8  F5 7E F5 7E FF FF FF FF 
  1266)    102981.7  Rx     18FEBD00  8  7E FF F4 7E FF FF FF FF 
  1267)    102982.0  Rx     18FEBD00  8  7E FF F4 7E FF FF FF FF 
  1268)    102982.3  Rx     18FEBD00  8  7E FF F4 7E FF FF FF FF 
  1269)    102982.7  Rx     18FEBD00  8  7E FF F4 7E FF FF FF FF 
  1270)    102983.0  Rx     18FEBD00  8  7E FF F4 7E FF FF FF FF 
  1271)    102983.3  Rx     18FEBD00  8  7E FF F4 7E FF FF FF FF 
  1272)    102983.6  Rx     18FEBD00  8  7E FF F4 7E FF FF FF FF 
  1273)    102983.9  Rx     18FEBD00  8  7E FF F4 7E FF FF FF FF 
  1274)    102984.3  Rx     18FEBD00  8  7E FF F4 7E FF FF FF FF 
  1275)    102984.6  Rx     18FEFF00  8  FE FF FF FF FF FF FF FF 
  1276)    102984.9  Rx     18FEF200  8  F4 7E F5 7E F5 7E FF FF 
  1277)    102985.2  Rx     18FEF200  8  F4 7E F5 7E F5 7E FF FF 
  1278)    102985.5  Rx     18FEF200  8  F4 7E F5 7E F5 7E FF FF 
  1279)    102985.8  Rx     18FEF200  8  F4 7E F5 7E F5 7E FF FF 
  1280)    102986.1  Rx     0CF00400  8  F8 7F 7F 75 7F FF FF 7F 
  1281)    102986.4  Rx     0CF00400  8  F8 7F 7F 75 7F FF FF 7F 
  1282)    102986.8  Rx     0CF00400  8  F8 7F 7F 75 7F FF FF 7F 
  1283)    102987.1  Rx     0CF00400  8  F8 7F 7F 75 7F FF FF 7F 
  1284)    102987.4  Rx     0CF00400  8  F8 7F 7F 75 7F FF FF 7F 
  1285)    102987.7  Rx     0CF00400  8  F8 7F 7F 75 7F FF FF 7F 
  1286)    102988.0  Rx     0CF00400  8  F8 7F 7F 75 7F FF FF 7F 
  1287)    102988.4  Rx     0CF00400  8  F8 7F 7F 75 7F FF FF 7F 
  1288)    102988.7  Rx     18FEEE00  8  7F 75 7F FF FF FF FF FF 
  1289)    102989.0  Rx     18FEEE00  8  7F 75 7F FF FF FF FF FF 
  1290)    102989.3  Rx     18FEEE00  8  7F 75 7F FF FF FF FF FF 
  1291)    102989.6  Rx     18FEEE00  8  7F 75 7F FF FF FF FF FF 
  1292)    102989.9  Rx     18FEEE00  8  7F 75 7F FF FF FF FF FF 
  1293)    102990.2  Rx     18FEEE00  8  7F 75 7F FF FF FF FF FF 
  1294)    102990.6  Rx     18FEEE00  8  7F 75 7F FF FF FF FF FF 
  1295)    102990.9  Rx     18FEEE00  8  7F 75 7F FF FF FF FF FF 
  1296)    102991.2  Rx     18FEEE00  8  7F 75 7F FF FF FF FF FF 
  1297)    102991.6  Rx     0CF00900  8  74 7F FF 66 7F 74 7F 7F 
  1298)    102991.9  Rx     0CF00503  8  FF FF FF 7F FF FF FF FF 
  1299)    102992.2  Rx     0CF00503  8  FF FF FF 7F FF FF FF FF 
  1300)    102992.6  Rx     0CF00503  8  FF FF FF 7F FF FF FF FF 
  1301)    102992.9  Rx     0CF00503  8  FF FF FF 7F FF FF FF FF 
  1302)    102993.2  Rx     0CF00503  8  FF FF FF 7F FF FF FF FF 
  1303)    102993.5  Rx     0CF00503  8  FF FF FF 7F FF FF FF FF 
  1304)    102993.9  Rx     0CF00503  8  FF FF FF 7F FF FF FF FF 
  1305)    102994.2  Rx     0CF00503  8  FF FF FF 7F FF FF FF FF 
  1306)    102994.5  Rx     18FEFA0B  8  7F FF FF FF FF FF FF FF 
  1307)    102994.8  Rx     0CF00000  8  FF 3F FF FF FF FF FF FF 
  1308)    102995.2  Rx     0CF00000  8  FF 3F FF FF FF FF FF FF 
  1309)    102995.5  Rx     0CF00000  8  FF 3F FF FF FF FF FF FF 
  1310)    102995.8  Rx     0CF00000  8  FF 3F FF FF FF FF FF FF 
  1311)    102996.1  Rx     0CF00000  8  FF 3F FF FF FF FF FF FF 
  1312)    102996.5  Rx     0CF00000  8  FF 3F FF FF FF FF FF FF 
  1313)    102996.8  Rx     0CF00000  8  FF 3F FF FF FF FF FF FF 
  1314)    102997.1  Rx     0CF00000  8  FF 3F FF FF FF FF FF FF 
  1315)    102997.4  Rx     0CF00000  8  FF 3F FF FF FF FF FF FF 
  1316)    102997.7  Rx     18FDB300  8  75 7F 75 7F FF FF FF FF 
  1317)    102998.0  Rx     18FDB300  8  75 7F 75 7F FF FF FF FF 
  1318)    102998.4  Rx     18FDB300  8  75 7F 75 7F FF FF FF FF 
  1319)    102998.7  Rx     18FDB300  8  75 7F 75 7F FF FF FF FF 
  1320)    102999.0  Rx     18FDB300  8  75 7F 75 7F FF FF FF FF 
  1321)    102999.3  Rx     18FDB300  8  75 7F 75 7F FF FF FF FF 
  1322)    102999.6  Rx     18FDB300  8  75 7F 75 7F FF FF FF FF 
  1323)    102999.9  Rx     18FDB300  8  75 7F 75 7F FF FF FF FF 
  1324)    103000.3  Rx     18FDB300  8  75 7F 75 7F FF FF FF FF 
  1325)    103000.6  Rx     18FEFC00  8  7F 7F FF FF FF FF FF FF 
  1326)    103000.9  Rx     18FEFC00  8  7F 7F FF FF FF FF FF FF 
  1327)    103001.2  Rx     18FEA600  8  75 7F FF 81 FF FF FF FF 
  1328)    103001.6  Rx     18FEA600  8  75 7F FF 81 FF FF FF FF 
  1329)    103001.9  Rx     18FEA600  8  75 7F FF 81 FF FF FF FF 
  1330)    103002.2  Rx     18FEA600  8  75 7F FF 81 FF FF FF FF 
  1331)    103002.5  Rx     18FEA600  8  75 7F FF 81 FF FF FF FF 
  1332)    103002.9  Rx     18FEA600  8  75 7F FF 81 FF FF FF FF 
  1333)    103003.2  Rx     18FEA600  8  75 7F FF 81 FF FF FF FF 
  1334)    103003.5  Rx     18FEA600  8  75 7F FF 81 FF FF FF FF 
  1335)    103003.8  Rx     18FEF200  8  75 7F 75 7F 75 7F FF FF 
  1336)    103004.1  Rx     18FEF200  8  75 7F 75 7F 75 7F FF FF 
  1337)    103004.4  Rx     18FEF200  8  75 7F 75 7F 75 7F FF FF 
  1338)    103004.7  Rx     18FEF200  8  75 7F 75 7F 75 7F FF FF 
  1339)    103005.0  Rx     18FEF200  8  75 7F 75 7F 75 7F FF FF 
  1340)    103005.3  Rx     18FEF200  8  75 7F 75 7F 75 7F FF FF 
  1341)    103005.7  Rx     18FEF200  8  75 7F 75 7F 75 7F FF FF 
  1342)    103006.0  Rx     18FEF200  8  75 7F 75 7F 75 7F FF FF 
  1343)    103006.3  Rx     0CF00400  8  F8 7F 7F F5 7F FF FF 7F 
  1344)    103006.6  Rx     0CF00200  8  FF 7F 40 FF FF FF FF FF 
  1345)    103006.9  Rx     0CF00200  8  FF 7F 40 FF FF FF FF FF 
  1346)    103007.3  Rx     0CF00200  8  FF 7F 40 FF FF FF FF FF 
  1347)    103007.6  Rx     0CF00200  8  FF 7F 40 FF FF FF FF FF 
  1348)    103007.9  Rx     0CF00200  8  FF 7F 40 FF FF FF FF FF 
  1349)    103008.2  Rx     0CF00200  8  FF 7F 40 FF FF FF FF FF 
  1350)    103008.6  Rx     18FEEF00  8  7F FF FF 7F FF FF FF FF 
  1351)    103008.9  Rx     18FEEF00  8  7F FF FF 7F FF FF FF FF 
  1352)    103009.2  Rx     18FEEF00  8  7F FF FF 7F FF FF FF FF 
  1353)    103009.6  Rx     18FEEF00  8  7F FF FF 7F FF FF FF FF 
  1354)    103009.9  Rx     18FEEF00  8  7F FF FF 7F FF FF FF FF 
  1355)    103010.2  Rx     18FEEF00  8  7F FF FF 7F FF FF FF FF 
  1356)    103010.5  Rx     18FEEF00  8  7F FF FF 7F FF FF FF FF 
  1357)    103010.8  Rx     18FEEF00  8  7F FF FF 7F FF FF FF FF 
  1358)    103011.1  Rx     18FEEF00  8  7F FF FF 7F FF FF FF FF 
  1359)    103011.5  Rx     18FEEF00  8  7F FF FF 7F FF FF FF FF 
  1360)    103011.8  Rx     0CF00503  8  FF FF FF 7F FF FF FF FF 
  1361)    103012.1  Rx     0CF00503  8  FF FF FF 7F FF FF FF FF 
  1362)    103012.4  Rx     0CF00503  8  FF FF FF 7F FF FF FF FF 
  1363)    103012.8  Rx     0CF00503  8  FF FF FF 7F FF FF FF FF 
  1364)    103013.1  Rx     0CF00503  8  FF FF FF 7F FF FF FF FF 
  1365)    103013.4  Rx     0CF00503  8  FF FF FF 7F FF FF FF FF 
  1366)    103013.7  Rx     0CF00503  8  FF FF FF 7F FF FF FF FF 
  1367)    103014.0  Rx     0CF00503  8  FF FF FF 7F FF FF FF FF 
  1368)    103014.3  Rx     0CF00503  8  FF FF FF 7F FF FF FF FF 
  1369)    103014.7  Rx     0CF00000  8  FF 40 FF FF FF FF FF FF 
  1370)    103015.0  Rx     0CF00000  8  FF 40 FF FF FF FF FF FF 
  1371)    103015.3  Rx     0CF00000  8  FF 40 FF FF FF FF FF FF 
  1372)    103015.6  Rx     0CF00000  8  FF 40 FF FF FF FF FF FF 
  1373)    103016.0  Rx     0CF00000  8  FF 40 FF FF FF FF FF FF 
  1374)    103016.3  Rx     0CF00000  8  FF 40 FF FF FF FF FF FF 
  1375)    103016.6  Rx     0CF00000  8  FF 40 FF FF FF FF FF FF 
  1376)    103016.9  Rx     0CF00000  8  FF 40 FF FF FF FF FF FF 
  1377)    103017.2  Rx     0CF00000  8  FF 40 FF FF FF FF FF FF 
  1378)    103017.8  Rx     18FEF500  8  7F F6 7F F6 7F 7F F6 7F 
  1379)    103018.1  Rx     18FEF500  8  7F F6 7F F6 7F 7F F6 7F 
  1380)    103018.4  Rx     18FEBD00  8  7F FF F5 7F FF FF FF FF 
  1381)    103018.7  Rx     18FEBD00  8  7F FF F5 7F FF FF FF FF 
  1382)    103019.0  Rx     18FEBD00  8  7F FF F5 7F FF FF FF FF 
  1383)    103019.4  Rx     18FEBD00  8  7F FF F5 7F FF FF FF FF 
  1384)    103019.7  Rx     18FEBD00  8  7F FF F5 7F FF FF FF FF 
  1385)    103020.0  Rx     18FEBD00  8  7F FF F5 7F FF FF FF FF 
  1386)    103020.3  Rx     18FEBD00  8  7F FF F5 7F FF FF FF FF 
  1387)    103020.9  Rx     18FEE600  8  7A 1E 0C 07 41 7F FF FF 
  1388)    103021.2  Rx     18FEA600  8  F5 7F 82 82 FF FF FF FF 
  1389)    103021.5  Rx     18FEA600  8  F5 7F 82 82 FF FF FF FF 
  1390)    103021.8  Rx     18FEA600  8  F5 7F 82 82 FF FF FF FF 
  1391)    103022.1  Rx     18FEA600  8  F5 7F 82 82 FF FF FF FF 
  1392)    103022.4  Rx     18FEA600  8  F5 7F 82 82 FF FF FF FF 
  1393)    103022.7  Rx     18FEA600  8  F5 7F 82 82 FF FF FF FF 
  1394)    103023.1  Rx     18FEA600  8  F5 7F 82 82 FF FF FF FF 
  1395)    103023.4  Rx     18FEA600  8  F5 7F 82 82 FF FF FF FF 
  1396)    103026.1  Rx     0CF00400  8  F8 80 80 76 80 FF FF 80 
  1397)    103026.4  Rx     0CF00200  8  FF 80 40 FF FF FF FF FF 
  1398)    103026.8  Rx     0CF00200  8  FF 80 40 FF FF FF FF FF 
  1399)    103027.1  Rx     0CF00200  8  FF 80 40 FF FF FF FF FF 
  1400)    103027.4  Rx     0CF00200  8  FF 80 40 FF FF FF FF FF 
  1401)    103027.7  Rx     0CF00200  8  FF 80 40 FF FF FF FF FF 
  1402)    103028.0  Rx     0CF00200  8  FF 80 40 FF FF FF FF FF 
  1403)    103028.3  Rx     0CF00200  8  FF 80 40 FF FF FF FF FF 
  1404)    103028.7  Rx     18FEF600  8  FF 80 FF FF FF FF FF FF 
  1405)    103029.0  Rx     0CF00900  8  75 80 FF 66 80 75 80 80 
  1406)    103029.3  Rx     0CF00900  8  75 80 FF 66 80 75 80 80 
  1407)    103029.6  Rx     0CF00900  8  75 80 FF 66 80 75 80 80 
  1408)    103029.9  Rx     0CF00900  8  75 80 FF 66 80 75 80 80 
  1409)    103030.2  Rx     0CF00900  8  75 80 FF 66 80 75 80 80 
  1410)    103030.5  Rx     0CF00900  8  75 80 FF 66 80 75 80 80 
  1411)    103030.8  Rx     0CF00900  8  75 80 FF 66 80 75 80 80 
  1412)    103031.1  Rx     0CF00900  8  75 80 FF 66 80 75 80 80 
  1413)    103031.4  Rx     0CF00900  8  75 80 FF 66 80 75 80 80 
  1414)    103031.7  Rx     18FEF803  8  FF FF FF 80 76 80 FF FF 
  1415)    103032.0  Rx     18F0010B  8  FF 80 FF FF FF FF FF FF 
  1416)    103032.4  Rx     18F0010B  8  FF 80 FF FF FF FF FF FF 
  1417)    103032.7  Rx     18F0010B  8  FF 80 FF FF FF FF FF FF 
  1418)    103033.0  Rx     18F0010B  8  FF 80 FF FF FF FF FF FF 
  1419)    103033.3  Rx     18F0010B  8  FF 80 FF FF FF FF FF FF 
  1420)    103033.6  Rx     18F0010B  8  FF 80 FF FF FF FF FF FF 
  1421)    103034.0  Rx     18F0010B  8  FF 80 FF FF FF FF FF FF 
  1422)    103034.3  Rx     18F0010B  8  FF 80 FF FF FF FF FF FF 
  1423)    103034.6  Rx     18F0010B  8  FF 80 FF FF FF FF FF FF 
  1424)    103034.9  Rx     18F02300  8  76 80 FF FF FF FF FF FF 
  1425)    103035.2  Rx     18F02300  8  76 80 FF FF FF FF FF FF 
  1426)    103035.5  Rx     18F02300  8  76 80 FF FF FF FF FF FF 
  1427)    103035.8  Rx     18F02300  8  76 80 FF FF FF FF FF FF 
  1428)    103036.1  Rx     18F02300  8  76 80 FF FF FF FF FF FF 
  1429)    103036.5  Rx     18F02300  8  76 80 FF FF FF FF FF FF 
  1430)    103036.8  Rx     18F02300  8  76 80 FF FF FF FF FF FF 
  1431)    103037.1  Rx     18F02300  8  76 80 FF FF FF FF FF FF 
  1432)    103037.4  Rx     18F02300  8  76 80 FF FF FF FF FF FF 
  1433)    103037.8  Rx     18FEF700  8  80 FF 76 80 76 80 FF FF 
  1434)    103038.1  Rx     18FEBD00  8  80 FF 76 80 FF FF FF FF 
  1435)    103038.4  Rx     18FEBD00  8  80 FF 76 80 FF FF FF FF 
  1436)    103038.7  Rx     18FEBD00  8  80 FF 76 80 FF FF FF FF 
  1437)    103039.0  Rx     18FEBD00  8  80 FF 76 80 FF FF FF FF 
  1438)    103039.3  Rx     18FEBD00  8  80 FF 76 80 FF FF FF FF 
  1439)    103039.6  Rx     18FEBD00  8  80 FF 76 80 FF FF FF FF 
  1440)    103040.0  Rx     18FEBD00  8  80 FF 76 80 FF FF FF FF 
  1441)    103040.3  Rx     18FEBD00  8  80 FF 76 80 FF FF FF FF 
  1442)    103040.6  Rx     18FEBD00  8  80 FF 76 80 FF FF FF FF 
  1443)    103040.9  Rx     18FEA600  8  76 80 05 83 FF FF FF FF 
  1444)    103041.2  Rx     18FEA600  8  76 80 05 83 FF FF FF FF 
  1445)    103041.6  Rx     18FEA600  8  76 80 05 83 FF FF FF FF 
  1446)    103041.9  Rx     18FEA600  8  76 80 05 83 FF FF FF FF 
  1447)    103042.2  Rx     18FEA600  8  76 80 05 83 FF FF FF FF 
  1448)    103042.5  Rx     18FEA600  8  76 80 05 83 FF FF FF FF 
  1449)    103042.8  Rx     18FEA600  8  76 80 05 83 FF FF FF FF 
  1450)    103043.1  Rx     18FEA600  8  76 80 05 83 FF FF FF FF 
  1451)    103043.4  Rx     18FEA600  8  76 80 05 83 FF FF FF FF 
  1452)    103043.8  Rx     18FEA600  8  76 80 05 83 FF FF FF FF 
  1453)    103044.1  Rx     18FEA600  8  76 80 05 83 FF FF FF FF 
  1454)    103044.4  Rx     18FEA600  8  76 80 05 83 FF FF FF FF 
  1455)    103044.7  Rx     18FEA600  8  76 80 05 83 FF FF FF FF 
  1456)    103045.1  Rx     18FEA600  8  76 80 05 83 FF FF FF FF 
  1457)    103045.4  Rx     18FEA600  8  76 80 05 83 FF FF FF FF 
  1458)    103045.7  Rx     18FEA600  8  76 80 05 83 FF FF FF FF 
  1459)    103046.0  Rx     18FEA600  8  76 80 05 83 FF FF FF FF 
  1460)    103046.3  Rx     18FEA600  8  76 80 05 83 FF FF FF FF 
  1461)    103046.6  Rx     18FEA600  8  76 80 05 83 FF FF FF FF 
  1462)    103046.9  Rx     18FEA600  8  76 80 05 83 FF FF FF FF 
  1463)    103047.3  Rx     18FEA600  8  76 80 05 83 FF FF FF FF 
  1464)    103047.6  Rx     18FEA600  8  76 80 05 83 FF FF FF FF 
  1465)    103047.9  Rx     18FEA600  8  76 80 05 83 FF FF FF FF 
  1466)    103048.2  Rx     18FEA600  8  76 80 05 83 FF FF FF FF 
  1467)    103048.5  Rx     18FEA600  8  76 80 05 83 FF FF FF FF 
  1468)    103048.9  Rx     18FEA600  8  76 80 05 83 FF FF FF FF 
  1469)    103049.2  Rx     18FEA600  8  76 80 05 83 FF FF FF FF 
  1470)    103049.5  Rx     18FEA600  8  76 80 05 83 FF FF FF FF 
  1471)    103049.8  Rx     0CF00200  8  FF 80 40 FF FF FF FF FF 
  1472)    103050.1  Rx     0CF00200  8  FF 80 40 FF FF FF FF FF 
  1473)    103050.4  Rx     0CF00200  8  FF 80 40 FF FF FF FF FF 
  1474)    103050.7  Rx     0CF00200  8  FF 80 40 FF FF FF FF FF 
  1475)    103051.1  Rx     0CF00200  8  FF 80 40 FF FF FF FF FF 
  1476)    103051.4  Rx     0CF00200  8  FF 80 40 FF FF FF FF FF 
  1477)    103051.7  Rx     0CF00200  8  FF 80 40 FF FF FF FF FF 
  1478)    103052.0  Rx     0CF00200  8  FF 80 40 FF FF FF FF FF 
  1479)    103052.4  Rx     0CF00200  8  FF 80 40 FF FF FF FF FF 
  1480)    103052.7  Rx     18FEF100  8  FF FD 80 FF FF FF FF FF 
  1481)    103053.0  Rx     0CF00503  8  FF FF FF 80 FF FF FF FF 
  1482)    103053.4  Rx     0CF00503  8  FF FF FF 80 FF FF FF FF 
  1483)    103053.7  Rx     0CF00503  8  FF FF FF 80 FF FF FF FF 
  1484)    103054.0  Rx     0CF00503  8  FF FF FF 80 FF FF FF FF 
  1485)    103054.3  Rx     0CF00503  8  FF FF FF 80 FF FF FF FF 
  1486)    103054.6  Rx     0CF00503  8  FF FF FF 80 FF FF FF FF 
  1487)    103055.0  Rx     0CF00503  8  FF FF FF 80 FF FF FF FF 
  1488)    103055.3  Rx     0CF00503  8  FF FF FF 80 FF FF FF FF 
  1489)    103055.6  Rx     0CF00503  8  FF FF FF 80 FF FF FF FF 
  1490)    103055.9  Rx     18F0010B  8  FF 80 FF FF FF FF FF FF 
  1491)    103056.2  Rx     0CF00000  8  FF 40 FF FF FF FF FF FF 
  1492)    103056.5  Rx     0CF00000  8  FF 40 FF FF FF FF FF FF 
  1493)    103056.9  Rx     0CF00000  8  FF 40 FF FF FF FF FF FF 
  1494)    103057.2  Rx     0CF00000  8  FF 40 FF FF FF FF FF FF 
  1495)    103057.5  Rx     0CF00000  8  FF 40 FF FF FF FF FF FF 
  1496)    103057.8  Rx     0CF00000  8  FF 40 FF FF FF FF FF FF 
  1497)    103058.2  Rx     0CF00000  8  FF 40 FF FF FF FF FF FF 
  1498)    103058.5  Rx     0CF00000  8  FF 40 FF FF FF FF FF FF 
  1499)    103058.8  Rx     18FE5600  8  80 80 FF FF FF FF FF FF 
  1500)    103059.1  Rx     18FDB300  8  FD 80 FD 80 FF FF FF FF 
  1501)    103059.4  Rx     18FDB300  8  FD 80 FD 80 FF FF FF FF 
  1502)    103059.7  Rx     18FDB300  8  FD 80 FD 80 FF FF FF FF 
  1503)    103060.1  Rx     18FDB300  8  FD 80 FD 80 FF FF FF FF 
  1504)    103060.4  Rx     18FDB300  8  FD 80 FD 80 FF FF FF FF 
  1505)    103060.7  Rx     18FDB300  8  FD 80 FD 80 FF FF FF FF 
  1506)    103061.0  Rx     18FDB300  8  FD 80 FD 80 FF FF FF FF 
  1507)    103061.3  Rx     18FDB300  8  FD 80 FD 80 FF FF FF FF 
  1508)    103061.7  Rx     18FDB300  8  FD 80 FD 80 FF FF FF FF 
